Index	Time (s)	WE(1).Potential (V)	Corrected time (s)	dWE(1).Potential/dt (V/s)	OCP value (V)
1	31.6698669200413	0.87799072265625	0	0	0.910100001914828
2	31.7698669197888	0.8807373046875	0.0999999997475243	0.0274657160043716	
3	31.8698669195363	0.8831787109375	0.199999999495049	0.022888096049428	
4	31.9698669192838	0.88470458984375	0.299999999242573	0.00864661391824484	
5	32.0698669190314	0.88623046875	0.399999998990097	0.0183104779571295	
6	32.1698669187789	0.887451171875	0.499999998737621	0.00966386310756207	
7	32.2698669185264	0.888671875	0.599999998485146	0.0132242338731885	
8	32.3698669182739	0.88958740234375	0.69999999823267	0.00661211693659425	
9	32.4698669180215	0.8905029296875	0.799999997980194	0.0101724872365594	
10	32.569866917769	0.89141845703125	0.899999997727718	0.00915523897856474	
11	32.6698669175165	0.892333984375	0.999999997475243	0.00915523897856474	
12	32.769866917264	0.89324951171875	1.09999999722277	0.00915523897856474	
13	32.8698669170116	0.89385986328125	1.19999999697029	0.00356037053279579	
14	32.9698669167591	0.89447021484375	1.29999999671782	0.00712074106559157	
15	33.0698669165066	0.894775390625	1.39999999646534	0.00050862436182797	
16	33.1698669162541	0.8953857421875	1.49999999621286	0.00966386310756207	
17	33.2698669160017	0.89599609375	1.59999999596039	0.0050862436182797	
18	33.3698669157492	0.8966064453125	1.69999999570791	0.00610349234193563	
19	33.4698669154967	0.897216796875	1.79999999545544	0.00610349234193563	
20	33.5698669152442	0.89752197265625	1.89999999520296	0.00050862436182797	
21	33.6698669149918	0.89813232421875	1.99999999495049	0.00966386310756207	
22	33.7698669147393	0.8984375	2.09999999469801	-0.00050862436182797	
23	33.8698669144868	0.89874267578125	2.19999999444553	0.00406899489462376	
24	33.9698669142343	0.8990478515625	2.29999999419306	0.00305174617096782	
25	34.0698669139819	0.89935302734375	2.39999999394058	0.00305174617096782	
26	34.1698669137294	0.89996337890625	2.49999999368811	0.00864661391824484	
27	34.2698669134769	0.9002685546875	2.59999999343563	-0.00050862436182797	
28	34.3698669132244	0.90057373046875	2.69999999318316	0.00406899489462376	
29	34.469866912972	0.90087890625	2.79999999293068	0.00305174617096782	
30	34.5698669127195	0.90118408203125	2.8999999926782	0.00305174617096782	
31	34.669866912467	0.9014892578125	2.99999999242573	0.00305174617096782	
32	34.7698669122145	0.90179443359375	3.09999999217325	0.00305174617096782	
33	34.869866911962	0.902099609375	3.19999999192078	0.00305174617096782	
34	34.9698669117096	0.90240478515625	3.2999999916683	0.00305174617096782	
35	35.0698669114571	0.9027099609375	3.39999999141583	0.00305174617096782	
36	35.1698669112046	0.9027099609375	3.49999999116335	-0.00254312180913985	
37	35.2698669109521	0.90301513671875	3.59999999091087	0.00661211693659425	
38	35.3698669106997	0.9033203125	3.6999999906584	0.00203449744731188	
39	35.4698669104472	0.90362548828125	3.79999999040592	0.00305174617096782	
40	35.5698669101947	0.90362548828125	3.89999999015345	-0.00254312180913985	
41	35.6698669099422	0.9039306640625	3.99999998990097	0.00661211693659425	
42	35.7698669096898	0.90423583984375	4.0999999896485	0.00203449744731188	
43	35.8698669094373	0.90423583984375	4.19999998939602	-0.00254312180913985	
44	35.9698669091848	0.904541015625	4.29999998914354	0.00661211693659425	
45	36.0698669089323	0.904541015625	4.39999998889107	-0.00356037053279579	
46	36.1698669086799	0.90484619140625	4.49999998863859	0.00661211693659425	
47	36.2698669084274	0.90484619140625	4.59999998838612	-0.00356037053279579	
48	36.3698669081749	0.9051513671875	4.69999998813364	0.00661211693659425	
49	36.4698669079224	0.9051513671875	4.79999998788116	-0.00356037053279579	
50	36.56986690767	0.90545654296875	4.89999998762869	0.00661211693659425	
51	36.6698669074175	0.90545654296875	4.99999998737621	-0.00356037053279579	
52	36.769866907165	0.90576171875	5.09999998712374	0.00661211693659425	
53	36.8698669069125	0.90576171875	5.19999998687126	-0.00356037053279579	
54	36.9698669066601	0.90606689453125	5.29999998661879	0.00661211693659425	
55	37.0698669064076	0.90606689453125	5.39999998636631	-0.00356037053279579	
56	37.1698669061551	0.9063720703125	5.49999998611383	0.00661211693659425	
57	37.2698669059026	0.9063720703125	5.59999998586136	-0.00356037053279579	
58	37.3698669056502	0.9063720703125	5.69999998560888	0.00101724872365594	
59	37.4698669053977	0.90667724609375	5.79999998535641	0.00559486821293831	
60	37.5698669051452	0.906982421875	5.89999998510393	0.00203449744731188	
61	37.6698669048927	0.906982421875	5.99999998485146	-0.00254312180913985	
62	37.7698669046403	0.906982421875	6.09999998459898	0.00101724872365594	
63	37.8698669043878	0.90728759765625	6.1999999843465	0.00559486821293831	
64	37.9698669041353	0.90728759765625	6.29999998409403	-0.00356037053279579	
65	38.0698669038828	0.90728759765625	6.39999998384155	0.00101724872365594	
66	38.1698669036303	0.90728759765625	6.49999998358908	0	
67	38.2698669033779	0.9075927734375	6.5999999833366	0.00559486821293831	
68	38.3698669031254	0.9075927734375	6.69999998308413	-0.00356037053279579	
69	38.4698669028729	0.9075927734375	6.79999998283165	0.00101724872365594	
70	38.5698669026204	0.90789794921875	6.89999998257917	0.00559486821293831	
71	38.669866902368	0.90789794921875	6.9999999823267	-0.00356037053279579	
72	38.7698669021155	0.90789794921875	7.09999998207422	0.00101724872365594	
73	38.869866901863	0.90789794921875	7.19999998182175	0	
74	38.9698669016105	0.908203125	7.29999998156927	0.00559486821293831	
75	39.0698669013581	0.908203125	7.3999999813168	-0.00356037053279579	
76	39.1698669011056	0.908203125	7.49999998106432	0.00101724872365594	
77	39.2698669008531	0.90850830078125	7.59999998081184	0.00559486821293831	
78	39.3698669006006	0.90850830078125	7.69999998055937	-0.00356037053279579	
79	39.4698669003482	0.9088134765625	7.79999998030689	0.00661211693659425	
80	39.5698669000957	0.9088134765625	7.89999998005442	-0.00356037053279579	
81	39.6698668998432	0.9088134765625	7.99999997980194	0.00101724872365594	
82	39.7698668995907	0.90850830078125	8.09999997954947	-0.00559486821293831	
83	39.8698668993383	0.90850830078125	8.19999997929699	0.00356037053279579	
84	39.9698668990858	0.9088134765625	8.29999997904451	0.00457761948928237	
85	40.0698668988333	0.9088134765625	8.39999997879204	-0.00356037053279579	
86	40.1698668985808	0.9088134765625	8.49999997853956	0.00101724872365594	
87	40.2698668983284	0.90911865234375	8.59999997828709	0.00559486821293831	
88	40.3698668980759	0.90911865234375	8.69999997803461	-0.00356037053279579	
89	40.4698668978234	0.90911865234375	8.79999997778214	0.00101724872365594	
90	40.5698668975709	0.90911865234375	8.89999997752966	0	
91	40.6698668973185	0.909423828125	8.99999997727718	0.00559486821293831	
92	40.769866897066	0.909423828125	9.09999997702471	-0.00356037053279579	
93	40.8698668968135	0.909423828125	9.19999997677223	0.00101724872365594	
94	40.969866896561	0.909423828125	9.29999997651976	0	
95	41.0698668963086	0.90972900390625	9.39999997626728	0.00559486821293831	
96	41.1698668960561	0.90972900390625	9.49999997601481	-0.00356037053279579	
97	41.2698668958036	0.90972900390625	9.59999997576233	0.00101724872365594	
98	41.3698668955511	0.90972900390625	9.69999997550985	0	
99	41.4698668952987	0.90972900390625	9.79999997525738	0	
100	41.5698668950462	0.90972900390625	9.8999999750049	0	
101	41.6698668947937	0.9100341796875	9.99999997475243	0.00559486821293831	
102	41.7698668945412	0.9100341796875	10.0999999745	-0.00356037053279579	
103	41.8698668942887	0.9100341796875	10.1999999742475	0.00101724872365594	
104	41.9698668940363	0.91033935546875	10.299999973995	0.00559486821293831	
105	42.0698668937838	0.91033935546875	10.3999999737425	-0.00356037053279579	
106	42.1698668935313	0.9100341796875	10.49999997349	-0.00457761948928237	
107	42.2698668932788	0.9100341796875	10.5999999732376	0.00356037053279579	
108	42.3698668930264	0.9100341796875	10.6999999729851	-0.00101724872365594	
109	42.4698668927739	0.91033935546875	10.7999999727326	0.00559486821293831	
110	42.5698668925214	0.91033935546875	10.8999999724801	-0.00356037053279579	
111	42.6698668922689	0.91033935546875	10.9999999722277	0.00101724872365594	
112	42.7698668920165	0.91033935546875	11.0999999719752	0	
113	42.869866891764	0.91033935546875	11.1999999717227	0	
114	42.9698668915115	0.91033935546875	11.2999999714702	0	
115	43.069866891259	0.91033935546875	11.3999999712178	0	
116	43.1698668910066	0.91033935546875	11.4999999709653	0	
117	43.2698668907541	0.91033935546875	11.5999999707128	0	
118	43.3698668905016	0.91064453125	11.6999999704603	0.00559486821293831	
119	43.4698668902491	0.91064453125	11.7999999702079	-0.00356037053279579	
120	43.5698668899967	0.91064453125	11.8999999699554	0.00101724872365594	
121	43.6698668897442	0.91064453125	11.9999999697029	0	
122	43.7698668894917	0.91064453125	12.0999999694504	0	
123	43.8698668892392	0.91064453125	12.199999969198	0	
124	43.9698668889868	0.91064453125	12.2999999689455	0	
125	44.0698668887343	0.91064453125	12.399999968693	0	
126	44.1698668884818	0.91064453125	12.4999999684405	0	
127	44.2698668882293	0.91094970703125	12.5999999681881	0.00559486821293831	
128	44.3698668879769	0.91094970703125	12.6999999679356	-0.00356037053279579	
129	44.4698668877244	0.91094970703125	12.7999999676831	0.00101724872365594	
130	44.5698668874719	0.91094970703125	12.8999999674306	0	
131	44.6698668872194	0.91094970703125	12.9999999671782	0	
132	44.769866886967	0.91094970703125	13.0999999669257	0	
133	44.8698668867145	0.91094970703125	13.1999999666732	0	
134	44.969866886462	0.91094970703125	13.2999999664207	0	
