Index	Time (s)	WE(1).Potential (V)	Corrected time (s)	dWE(1).Potential/dt (V/s)	OCP value (V)
1	31.8638619195515	0.10662841796875	0	0	0.120917226753983
2	31.963861919299	0.107147216796875	0.0999999997475243	0.00518796872347593	
3	32.0638619190465	0.1070556640625	0.199999999495049	-0.00396727025508881	
4	32.1638619187941	0.107391357421875	0.299999999242573	0.00895178876817226	
5	32.2638619185416	0.10760498046875	0.399999998990097	-0.000305174617096782	
6	32.3638619182891	0.107666015625	0.499999998737621	-0.000254312180913985	
7	32.4638619180366	0.10772705078125	0.599999998485146	0.00111897359602153	
8	32.5638619177842	0.108154296875	0.69999999823267	0.00732419081032276	
9	32.6638619175317	0.108306884765625	0.799999997980194	-0.0019836351275444	
10	32.7638619172792	0.108001708984375	0.899999997727718	-0.00595090491697192	
11	32.8638619170267	0.1080322265625	0.999999997475243	0.00462848180904984	
12	32.9638619167742	0.10809326171875	1.09999999722277	-0.000254312180913985	
13	33.0638619165218	0.10845947265625	1.19999999697029	0.00610349234193563	
14	33.1638619162693	0.109619140625	1.29999999671782	0.0171915031969547	
15	33.2638619160168	0.109893798828125	1.39999999646534	-0.00727332849055529	
16	33.3638619157643	0.109375	1.49999999621286	-0.00885006412863731	
17	33.4638619155119	0.10968017578125	1.59999999596039	0.0125630218535662	
18	33.5638619152594	0.108856201171875	1.69999999570791	-0.0203958377242088	
19	33.6638619150069	0.109222412109375	1.79999999545544	0.0173440910875797	
20	33.7638619147544	0.109375	1.89999999520296	-0.00422158231958747	
21	33.863861914502	0.109649658203125	1.99999999495049	0.00447589438408613	
22	33.9638619142495	0.109466552734375	2.09999999469801	-0.00605263002216816	
23	34.063861913997	0.10931396484375	2.19999999444553	0.000254312180913985	
24	34.1638619137445	0.10931396484375	2.29999999419306	0.00116983603220433	
25	34.2638619134921	0.10992431640625	2.39999999394058	0.0106811113655567	
26	34.3638619132396	0.109832763671875	2.49999999368811	-0.00879920180886984	
27	34.4638619129871	0.110137939453125	2.59999999343563	0.00869747623801231	
28	34.5638619127346	0.109893798828125	2.69999999318316	-0.00834143999963999	
29	34.6638619124822	0.110198974609375	2.79999999293068	0.00946041289716959	
30	34.7638619122297	0.1102294921875	2.8999999926782	-0.00381468283012509	
31	34.8638619119772	0.11041259765625	2.99999999242573	0.00401813257485628	
32	34.9638619117247	0.110931396484375	3.09999999217325	0.00747677823528647	
33	35.0638619114723	0.110015869140625	3.19999999192078	-0.0222268849611282	
34	35.1638619112198	0.110382080078125	3.2999999916683	0.0191242769360542	
35	35.2638619109673	0.110198974609375	3.39999999141583	-0.0106811113655567	
36	35.3638619107148	0.1102294921875	3.49999999116335	0.00391640746966004	
37	35.4638619104624	0.110595703125	3.59999999091087	0.00574745517224073	
38	35.5638619102099	0.110931396484375	3.6999999906584	0.0019836351275444	
39	35.6638619099574	0.11090087890625	3.79999999040592	-0.00325519591569901	
40	35.7638619097049	0.111541748046875	3.89999999015345	0.0132242338731885	
41	35.8638619094525	0.111572265625	3.99999998990097	-0.00701901642605662	
42	35.9638619092	0.112213134765625	4.0999999896485	0.0135294077917933	
43	36.0638619089475	0.112213134765625	4.19999998939602	-0.00737505313009024	
44	36.163861908695	0.112152099609375	4.29999998914354	0.00101724872365594	
45	36.2638619084425	0.1124267578125	4.39999998889107	0.00574745517224073	
46	36.3638619081901	0.112518310546875	4.49999998863859	-0.0017293228302151	
47	36.4638619079376	0.112396240234375	4.59999998838612	-0.00239053461700678	
48	36.5638619076851	0.112884521484375	4.69999998813364	0.0106811113655567	
49	36.6638619074326	0.11273193359375	4.79999998788116	-0.00890092644840479	
50	36.7638619071802	0.112945556640625	4.89999998762869	0.00732419081032276	
51	36.8638619069277	0.11297607421875	4.99999998737621	-0.00244139693677425	
52	36.9638619066752	0.11309814453125	5.09999998712374	0.00259398436173797	
53	37.0638619064227	0.113494873046875	5.19999998687126	0.00595090491697192	
54	37.1638619061703	0.113616943359375	5.29999998661879	-0.0019836351275444	
55	37.2638619059178	0.11358642578125	5.39999998636631	-0.00066121167037636	
56	37.3638619056653	0.11322021484375	5.49999998611383	-0.00595090491697192	
57	37.4638619054128	0.1134033203125	5.59999998586136	0.00752764055505395	
58	37.5638619051604	0.11328125	5.69999998560888	-0.00559486821293831	
59	37.6638619049079	0.11260986328125	5.79999998535641	-0.0102742118760943	
60	37.7638619046554	0.113006591796875	5.89999998510393	0.014699243940413	
61	37.8638619044029	0.11273193359375	5.99999998485146	-0.0119018098339438	
62	37.9638619041505	0.11297607421875	6.09999998459898	0.00900265108793974	
63	38.063861903898	0.113128662109375	6.1999999843465	-0.000966386287473142	
64	38.1638619036455	0.113067626953125	6.29999998409403	-0.00208535999991	
65	38.263861903393	0.113128662109375	6.39999998384155	0.00233967206440866	
66	38.3638619031406	0.11322021484375	6.49999998358908	0.000762936542741954	
67	38.4638619028881	0.113006591796875	6.5999999833366	-0.00478106923401356	
68	38.5638619026356	0.11260986328125	6.69999998308413	-0.00447589438408613	
69	38.6638619023831	0.112091064453125	6.79999998283165	-0.00559486821293831	
70	38.7638619021307	0.11236572265625	6.89999998257917	0.00976558774709702	
71	38.8638619018782	0.11212158203125	6.9999999823267	-0.00940955057740211	
72	38.9638619016257	0.112274169921875	7.09999998207422	0.00656125415116549	
73	39.0638619013732	0.112274169921875	7.19999998182175	-0.00259398436173797	
74	39.1638619011208	0.112396240234375	7.29999998156927	0.00274657155387104	
75	39.2638619008683	0.11236572265625	7.3999999813168	-0.0019836351275444	
76	39.3638619006158	0.112030029296875	7.49999998106432	-0.00539141846820712	
77	39.4638619003633	0.112335205078125	7.59999998081184	0.00940955057740211	
78	39.5638619001109	0.111846923828125	7.69999998055937	-0.0136311333626509	
79	39.6638618998584	0.111907958984375	7.79999998030689	0.00783281493932009	
80	39.7638618996059	0.111724853515625	7.89999998005442	-0.00569659285247326	
81	39.8638618993534	0.1123046875	7.99999997980194	0.0129699213430285	
82	39.9638618991009	0.1123046875	8.09999997954947	-0.00737505313009024	
83	40.0638618988485	0.11224365234375	8.19999997929699	0.000813798978924751	
84	40.163861898596	0.111785888671875	8.29999997904451	-0.00768022798001766	
85	40.2638618983435	0.111846923828125	8.39999997879204	0.00625607976689935	
86	40.363861898091	0.112457275390625	8.49999997853956	0.00895178876817226	
87	40.4638618978386	0.1124267578125	8.59999997828709	-0.00747677823528647	
88	40.5638618975861	0.112396240234375	8.69999997803461	0.00183104770258069	
89	40.6638618973336	0.112945556640625	8.79999997778214	0.0103250741958618	
90	40.7638618970811	0.113433837890625	8.89999997752966	0.00244139693677425	
91	40.8638618968287	0.11334228515625	8.99999997727718	-0.00554400542750955	
92	40.9638618965762	0.11358642578125	9.09999997702471	0.00717160338535905	
93	41.0638618963237	0.112762451171875	9.19999997677223	-0.0182596147060394	
94	41.1638618960712	0.11297607421875	9.29999997651976	0.0143432067707181	
95	41.2638618958188	0.113037109375	9.39999997626728	-0.00411985721439123	
96	41.3638618955663	0.113250732421875	9.49999997601481	0.00391640746966004	
97	41.4638618953138	0.113128662109375	9.59999997576233	-0.00452675670385361	
98	41.5638618950613	0.113067626953125	9.69999997550985	0.00101724872365594	
99	41.6638618948089	0.1129150390625	9.79999997525738	-0.00249225948937237	
100	41.7638618945564	0.11297607421875	9.8999999750049	0.00269570923410356	
101	41.8638618943039	0.11297607421875	9.99999997475243	-0.00122069846838713	
102	41.9638618940514	0.113037109375	10.0999999745	0.00132242334075272	
103	42.063861893799	0.113128662109375	10.1999999742475	0.000966386287473142	
104	42.1638618935465	0.113677978515625	10.299999973995	0.00920610129833221	
105	42.263861893294	0.11383056640625	10.3999999737425	-0.00330605846829712	
106	42.3638618930415	0.113739013671875	10.49999997349	-0.0016275979578495	
107	42.4638618927891	0.11358642578125	10.5999999732376	-0.00122069846838713	
108	42.5638618925366	0.11358642578125	10.6999999729851	0.00147501064930111	
109	42.6638618922841	0.113372802734375	10.7999999727326	-0.00442503206431866	
110	42.7638618920316	0.113739013671875	10.8999999724801	0.00920610129833221	
111	42.8638618917792	0.11376953125	10.9999999722277	-0.00442503206431866	
112	42.9638618915267	0.114044189453125	11.0999999719752	0.00590004259720445	
113	43.0638618912742	0.114349365234375	11.1999999717227	0.00249225948937237	
114	43.1638618910217	0.11492919921875	11.2999999714702	0.00798540282994509	
115	43.2638618907692	0.11474609375	11.3999999712178	-0.00910437572747469	
116	43.3638618905168	0.11492919921875	11.4999999709653	0.007425915915519	
117	43.4638618902643	0.11572265625	11.5999999707128	0.0118000851944089	
118	43.5638618900118	0.115447998046875	11.6999999704603	-0.0136819956824183	
119	43.6638618897593	0.1156005859375	11.7999999702079	0.00864661391824484	
120	43.7638618895069	0.11614990234375	11.8999999699554	0.00737505313009024	
121	43.8638618892544	0.115814208984375	11.9999999697029	-0.0120543977245688	
122	43.9638618890019	0.1158447265625	12.0999999694504	0.00630694208666682	
123	44.0638618887494	0.11517333984375	12.199999969198	-0.0137837203219533	
124	44.163861888497	0.115509033203125	12.2999999689455	0.0140888951718807	
125	44.2638618882445	0.1156005859375	12.399999968693	-0.00447589438408613	
126	44.363861887992	0.115753173828125	12.4999999684405	0.00284829642623663	
127	44.4638618877395	0.11614990234375	12.5999999681881	0.0057983179576695	
128	44.5638618874871	0.115997314453125	12.6999999679356	-0.00691729132086039	
129	44.6638618872346	0.11553955078125	12.7999999676831	-0.00528969336301088	
130	44.7638618869821	0.11572265625	12.8999999674306	0.00818885210901499	
131	44.8638618867296	0.1156005859375	12.9999999671782	-0.00590004259720445	
132	44.9638618864772	0.11614990234375	13.0999999669257	0.0121052600443363	
133	45.0638618862247	0.11627197265625	13.1999999666732	-0.00457761948928237	
134	45.1638618859722	0.116790771484375	13.2999999664207	0.00991817470639944	
135	45.2638618857197	0.1162109375	13.3999999661683	-0.016275979578495	
136	45.3638618854673	0.116485595703125	13.4999999659158	0.0135294077917933	
137	45.4638618852148	0.11663818359375	13.5999999656633	-0.00233967206440866	
138	45.5638618849623	0.11669921875	13.6999999654108	0.000254312180913985	
139	45.6638618847098	0.11669921875	13.7999999651583	-0.000203449744731188	
140	45.7638618844574	0.116455078125	13.8999999649059	-0.00427244463935494	
141	45.8638618842049	0.1168212890625	13.9999999646534	0.00956213846802711	
142	45.9638618839524	0.117034912109375	14.0999999644009	-0.00116983603220433	
143	46.0638618836999	0.1171875	14.1999999641484	0.00152587308548391	
144	46.1638618834475	0.117462158203125	14.299999963896	0.00396727025508881	
145	46.263861883195	0.11688232421875	14.3999999636435	-0.0133259585127234	
146	46.3638618829425	0.11700439453125	14.499999963391	0.00991817470639944	
147	46.46386188269	0.117156982421875	14.5999999631385	-0.000559486798010767	
148	46.5638618824375	0.11669921875	14.6999999628861	-0.00976558774709702	
149	46.6638618821851	0.116729736328125	14.7999999626336	0.00640866719186306	
150	46.7638618819326	0.117095947265625	14.8999999623811	0.00483193155378103	
151	46.8638618816801	0.116668701171875	14.9999999621286	-0.0120035354048014	
152	46.9638618814276	0.116058349609375	15.0999999618762	-0.00498451897874475	
153	47.0638618811752	0.11614990234375	15.1999999616237	0.00737505313009024	
154	47.1638618809227	0.11639404296875	15.2999999613712	0.00137328577693552	
155	47.2638618806702	0.116943359375	15.3999999611187	0.00752764055505395	
156	47.3638618804177	0.11669921875	15.4999999608663	-0.0100707625970244	
157	47.4638618801653	0.11627197265625	15.5999999606138	-0.00315347104333341	
158	47.5638618799128	0.11614990234375	15.6999999603613	0.00193277257494628	
159	47.6638618796603	0.116455078125	15.7999999601088	0.00559486821293831	
160	47.7638618794078	0.116851806640625	15.8999999598564	0.00330605846829712	
161	47.8638618791554	0.11669921875	15.9999999596039	-0.00640866719186306	
162	47.9638618789029	0.1165771484375	16.0999999593514	0.000864661415107548	
163	48.0638618786504	0.117034912109375	16.1999999590989	0.00930782593786716	
164	48.1638618783979	0.116912841796875	16.2999999588465	-0.00798540282994509	
165	48.2638618781455	0.1171875	16.399999958594	0.00798540282994509	
166	48.363861877893	0.11737060546875	16.4999999583415	-0.000254312180913985	
167	48.4638618776405	0.117095947265625	16.599999958089	-0.00625607976689935	
168	48.563861877388	0.1180419921875	16.6999999578366	0.0211587734520435	
169	48.6638618771356	0.1182861328125	16.7999999575841	-0.00747677823528647	
170	48.7638618768831	0.117706298828125	16.8999999573316	-0.0103250741958618	
171	48.8638618766306	0.117919921875	16.9999999570791	0.0114949103444815	
172	48.9638618763781	0.11810302734375	17.0999999568267	-0.00106811115983874	
173	49.0638618761257	0.11822509765625	17.1999999565742	0.000813798978924751	
174	49.1638618758732	0.11895751953125	17.2999999563217	0.0126138841733336	
175	49.2638618756207	0.119232177734375	17.3999999560692	-0.00310260872356594	
176	49.3638618753682	0.1190185546875	17.4999999558167	-0.00467934412881732	
177	49.4638618751158	0.11895751953125	17.5999999555643	0.00228880974464118	
178	49.5638618748633	0.11871337890625	17.6999999553118	-0.00447589438408613	
179	49.6638618746108	0.118865966796875	17.7999999550593	0.0054422807879746	
180	49.7638618743583	0.1190185546875	17.8999999548068	0.000203449744731188	
181	49.8638618741059	0.119049072265625	17.9999999545544	-0.000712074106559157	
182	49.9638618738534	0.119537353515625	18.0999999543019	0.00910437572747469	
183	50.0638618736009	0.119476318359375	18.1999999540494	-0.0067138415761292	
184	50.1638618733484	0.119293212890625	18.2999999537969	-0.00101724872365594	
185	50.2638618730959	0.11871337890625	18.3999999535445	-0.00869747623801231	
186	50.3638618728435	0.11920166015625	18.499999953292	0.0151061434298754	
187	50.463861872591	0.119232177734375	18.5999999530395	-0.0070698787458241	
188	50.5638618723385	0.118621826171875	18.699999952787	-0.00991817470639944	
189	50.663861872086	0.118988037109375	18.7999999525346	0.0139363072812557	
190	50.7638618718336	0.118927001953125	18.8999999522821	-0.007425915915519	
191	50.8638618715811	0.118377685546875	18.9999999520296	-0.00813798978924751	
192	50.9638618713286	0.118621826171875	19.0999999517771	0.0106811113655567	
193	51.0638618710761	0.118499755859375	19.1999999515247	-0.00691729132086039	
194	51.1638618708237	0.11859130859375	19.2999999512722	0.00391640746966004	
195	51.2638618705712	0.11859130859375	19.3999999510197	-0.00147501064930111	
196	51.3638618703187	0.11822509765625	19.4999999507672	-0.00640866719186306	
197	51.4638618700662	0.11785888671875	19.5999999505148	-0.00244139693677425	
198	51.5638618698138	0.11834716796875	19.6999999502623	0.0120035354048014	
199	51.6638618695613	0.118438720703125	19.7999999500098	-0.00523883104324341	
200	51.7638618693088	0.118438720703125	19.8999999497573	0.000559486798010767	
201	51.8638618690563	0.118011474609375	19.9999999495049	-0.00752764055505395	
202	51.9638618688039	0.117523193359375	20.0999999492524	-0.00396727025508881	
203	52.0638618685514	0.118133544921875	20.1999999489999	0.0154621805995703	
204	52.1638618682989	0.117340087890625	20.2999999487474	-0.0232949964702129	
205	52.2638618680464	0.11700439453125	20.399999948495	0.00513710593804717	
206	52.363861867794	0.116912841796875	20.4999999482425	-0.000406899489462376	
207	52.4638618675415	0.11669921875	20.59999994799	-0.00396727025508881	
208	52.563861867289	0.116119384765625	20.6999999477375	-0.00844316463917494	
209	52.6638618670365	0.11578369140625	20.799999947485	-0.000101724872365594	
210	52.7638618667841	0.115234375	20.8999999472326	-0.00808712746948004	
211	52.8638618665316	0.114898681640625	20.9999999469801	-0.000864661415107548	
212	52.9638618662791	0.1153564453125	21.0999999467276	0.0104776620864868	
213	53.0638618660266	0.11553955078125	21.1999999464751	-0.00310260872356594	
214	53.1638618657742	0.11553955078125	21.2999999462227	-0.000610349234193563	
215	53.2638618655217	0.11529541015625	21.3999999459702	-0.00386554514989257	
216	53.3638618652692	0.11578369140625	21.4999999457177	0.0118000851944089	
217	53.4638618650167	0.115142822265625	21.5999999454652	-0.0182596147060394	
218	53.5638618647642	0.1156005859375	21.6999999452128	0.0174966789782047	
219	53.6638618645118	0.11578369140625	21.7999999449603	-0.00411985721439123	
220	53.7638618642593	0.115509033203125	21.8999999447078	-0.00564573053270578	
221	53.8638618640068	0.115997314453125	21.9999999444553	0.0127664711326361	
222	53.9638618637543	0.115478515625	22.0999999442029	-0.01612339168787	
223	54.0638618635019	0.11529541015625	22.1999999439504	0.00432330695912242	
224	54.1638618632494	0.11541748046875	22.2999999436979	0.00264484668150544	
225	54.2638618629969	0.115020751953125	22.3999999434454	-0.00930782593786716	
226	54.3638618627444	0.11480712890625	22.499999943193	0.00111897359602153	
227	54.463861862492	0.114837646484375	22.5999999429405	0.0017293228302151	
228	54.5638618622395	0.11468505859375	22.699999942688	-0.00386554514989257	
229	54.663861861987	0.114471435546875	22.7999999424355	-0.00203449744731188	
230	54.7638618617345	0.11444091796875	22.8999999421831	0.00142414821311831	
231	54.8638618614821	0.114532470703125	22.9999999419306	0.00132242334075272	
232	54.9638618612296	0.114593505859375	23.0999999416781	-5.0862436182797E-05	
233	55.0638618609771	0.1141357421875	23.1999999414256	-0.00879920180886984	
234	55.1638618607246	0.11431884765625	23.2999999411732	0.00890092644840479	
235	55.2638618604722	0.11431884765625	23.3999999409207	-0.00366209540516138	
236	55.3638618602197	0.114715576171875	23.4999999406682	0.00788367725908756	
237	55.4638618599672	0.11517333984375	23.5999999404157	0.00376382027752697	
238	55.5638618597147	0.114898681640625	23.6999999401633	-0.00905351340770721	
239	55.6638618594623	0.115447998046875	23.7999999399108	0.0148009685799479	
240	55.7638618592098	0.11572265625	23.8999999396583	-0.00228880974464118	
241	55.8638618589573	0.115753173828125	23.9999999394058	-0.000813798978924751	
242	55.9638618587048	0.115875244140625	24.0999999391533	0.00279743410646915	
243	56.0638618584524	0.11529541015625	24.1999999389009	-0.0119526721537113	
244	56.1638618581999	0.11517333984375	24.2999999386484	0.00493365619331598	
245	56.2638618579474	0.115631103515625	24.3999999383959	0.00788367725908756	
246	56.3638618576949	0.115966796875	24.4999999381434	0.000406899489462376	
247	56.4638618574425	0.115509033203125	24.599999937891	-0.0107828369364142	
248	56.56386185719	0.115936279296875	24.6999999376385	0.0142923444509506	
249	56.6638618569375	0.116119384765625	24.799999937386	-0.00315347104333341	
250	56.763861856685	0.116180419921875	24.8999999371335	0.000406899489462376	
251	56.8638618564325	0.116607666015625	24.9999999368811	0.00773109029978514	
252	56.9638618561801	0.116729736328125	25.0999999366286	-0.00254312180913985	
253	57.0638618559276	0.1163330078125	25.1999999363761	-0.00727332849055529	
254	57.1638618556751	0.11676025390625	25.2999999361236	0.0128681967034936	
255	57.2638618554226	0.1163330078125	25.3999999358712	-0.0141397574916482	
256	57.3638618551702	0.116058349609375	25.4999999356187	0.00137328577693552	
257	57.4638618549177	0.11663818359375	25.5999999353662	0.0124104348942637	
258	57.5638618546652	0.11663818359375	25.6999999351137	-0.00768022798001766	
259	57.6638618544127	0.116607666015625	25.7999999348613	0.00137328577693552	
260	57.7638618541603	0.1168212890625	25.8999999346088	0.00427244463935494	
261	57.8638618539078	0.116546630859375	25.9999999343563	-0.00762936566025019	
262	57.9638618536553	0.116546630859375	26.0999999341038	0.00391640746966004	
263	58.0638618534028	0.11651611328125	26.1999999338514	-0.00147501064930111	
