Index	Time (s)	WE(1).Potential (V)	Corrected time (s)	dWE(1).Potential/dt (V/s)	OCP value (V)
1	31.5548559203316	0.9283447265625	0	0	0.96343994140625
2	31.6548559200792	0.9320068359375	0.0999999997475243	0.036620955914259	
3	31.7548559198267	0.93475341796875	0.199999999495049	0.022888096049428	
4	31.8548559195742	0.93719482421875	0.299999999242573	0.0249225944280624	
5	31.9548559193217	0.93902587890625	0.399999998990097	0.0142414821311831	
6	32.0548559190693	0.9405517578125	0.499999998737621	0.0147501062601805	
7	32.1548559188168	0.94207763671875	0.599999998485146	0.016275979578495	
8	32.2548559185643	0.94329833984375	0.69999999823267	0.00966386310756207	
9	32.3548559183118	0.9442138671875	0.799999997980194	0.00762936566025019	
10	32.4548559180594	0.9454345703125	0.899999997727718	0.0157673545181751	
11	32.5548559178069	0.94635009765625	0.999999997475243	0.00559486821293831	
12	32.6548559175544	0.94757080078125	1.09999999722277	0.0157673545181751	
13	32.7548559173019	0.94818115234375	1.19999999697029	0	
14	32.8548559170495	0.9490966796875	1.29999999671782	0.0137328580021858	
15	32.954855916797	0.94970703125	1.39999999646534	0.00254312180913985	
16	33.0548559165445	0.9503173828125	1.49999999621286	0.00712074106559157	
17	33.154855916292	0.950927734375	1.59999999596039	0.00610349234193563	
18	33.2548559160396	0.95123291015625	1.69999999570791	0.00050862436182797	
19	33.3548559157871	0.95184326171875	1.79999999545544	0.00966386310756207	
20	33.4548559155346	0.95245361328125	1.89999999520296	0.0050862436182797	
21	33.5548559152821	0.95306396484375	1.99999999495049	0.00610349234193563	
22	33.6548559150297	0.953369140625	2.09999999469801	0.00050862436182797	
23	33.7548559147772	0.95367431640625	2.19999999444553	0.00406899489462376	
24	33.8548559145247	0.9539794921875	2.29999999419306	0.00305174617096782	
25	33.9548559142722	0.95458984375	2.39999999394058	0.00864661391824484	
26	34.0548559140198	0.95489501953125	2.49999999368811	-0.00050862436182797	
27	34.1548559137673	0.9552001953125	2.59999999343563	0.00406899489462376	
28	34.2548559135148	0.95550537109375	2.69999999318316	0.00305174617096782	
29	34.3548559132623	0.95611572265625	2.79999999293068	0.00864661391824484	
30	34.4548559130099	0.95611572265625	2.8999999926782	-0.00610349234193563	
31	34.5548559127574	0.9564208984375	2.99999999242573	0.00762936566025019	
32	34.6548559125049	0.95672607421875	3.09999999217325	0.00203449744731188	
33	34.7548559122524	0.95703125	3.19999999192078	0.00305174617096782	
34	34.8548559119999	0.95733642578125	3.2999999916683	0.00305174617096782	
35	34.9548559117475	0.9576416015625	3.39999999141583	0.00305174617096782	
36	35.054855911495	0.95794677734375	3.49999999116335	0.00305174617096782	
37	35.1548559112425	0.95794677734375	3.59999999091087	-0.00254312180913985	
38	35.25485591099	0.958251953125	3.6999999906584	0.00661211693659425	
39	35.3548559107376	0.958251953125	3.79999999040592	-0.00356037053279579	
40	35.4548559104851	0.95855712890625	3.89999999015345	0.00661211693659425	
41	35.5548559102326	0.95855712890625	3.99999998990097	-0.00356037053279579	
42	35.6548559099801	0.9588623046875	4.0999999896485	0.00661211693659425	
43	35.7548559097277	0.95916748046875	4.19999998939602	0.00203449744731188	
44	35.8548559094752	0.95947265625	4.29999998914354	0.00305174617096782	
45	35.9548559092227	0.95977783203125	4.39999998889107	0.00305174617096782	
46	36.0548559089702	0.95977783203125	4.49999998863859	-0.00254312180913985	
47	36.1548559087178	0.95977783203125	4.59999998838612	0.00101724872365594	
48	36.2548559084653	0.9600830078125	4.69999998813364	0.00559486821293831	
49	36.3548559082128	0.9600830078125	4.79999998788116	-0.00356037053279579	
50	36.4548559079603	0.96038818359375	4.89999998762869	0.00661211693659425	
51	36.5548559077079	0.96038818359375	4.99999998737621	-0.00356037053279579	
52	36.6548559074554	0.960693359375	5.09999998712374	0.00661211693659425	
53	36.7548559072029	0.960693359375	5.19999998687126	-0.00356037053279579	
54	36.8548559069504	0.96099853515625	5.29999998661879	0.00661211693659425	
55	36.954855906698	0.96099853515625	5.39999998636631	-0.00356037053279579	
56	37.0548559064455	0.96099853515625	5.49999998611383	0.00101724872365594	
57	37.154855906193	0.96099853515625	5.59999998586136	0	
58	37.2548559059405	0.9613037109375	5.69999998560888	0.00559486821293831	
59	37.3548559056881	0.9613037109375	5.79999998535641	-0.00356037053279579	
60	37.4548559054356	0.96160888671875	5.89999998510393	0.00661211693659425	
61	37.5548559051831	0.96160888671875	5.99999998485146	-0.00356037053279579	
62	37.6548559049306	0.96160888671875	6.09999998459898	0.00101724872365594	
63	37.7548559046782	0.96160888671875	6.1999999843465	0	
64	37.8548559044257	0.9619140625	6.29999998409403	0.00559486821293831	
65	37.9548559041732	0.9619140625	6.39999998384155	-0.00356037053279579	
66	38.0548559039207	0.9619140625	6.49999998358908	0.00101724872365594	
67	38.1548559036682	0.96221923828125	6.5999999833366	0.00559486821293831	
68	38.2548559034158	0.96221923828125	6.69999998308413	-0.00356037053279579	
69	38.3548559031633	0.9625244140625	6.79999998283165	0.00661211693659425	
70	38.4548559029108	0.9625244140625	6.89999998257917	-0.00356037053279579	
71	38.5548559026583	0.9625244140625	6.9999999823267	0.00101724872365594	
72	38.6548559024059	0.9625244140625	7.09999998207422	0	
73	38.7548559021534	0.9625244140625	7.19999998182175	0	
74	38.8548559019009	0.9625244140625	7.29999998156927	0	
75	38.9548559016484	0.96282958984375	7.3999999813168	0.00559486821293831	
76	39.054855901396	0.96282958984375	7.49999998106432	-0.00356037053279579	
77	39.1548559011435	0.96282958984375	7.59999998081184	0.00101724872365594	
78	39.254855900891	0.963134765625	7.69999998055937	0.00559486821293831	
79	39.3548559006385	0.96282958984375	7.79999998030689	-0.00915523897856474	
80	39.4548559003861	0.96282958984375	7.89999998005442	0.00457761948928237	
81	39.5548559001336	0.963134765625	7.99999997980194	0.00457761948928237	
82	39.6548558998811	0.963134765625	8.09999997954947	-0.00356037053279579	
83	39.7548558996286	0.963134765625	8.19999997929699	0.00101724872365594	
84	39.8548558993762	0.963134765625	8.29999997904451	0	
85	39.9548558991237	0.963134765625	8.39999997879204	0	
86	40.0548558988712	0.96343994140625	8.49999997853956	0.00559486821293831	
87	40.1548558986187	0.96343994140625	8.59999997828709	-0.00356037053279579	
88	40.2548558983663	0.96343994140625	8.69999997803461	0.00101724872365594	
89	40.3548558981138	0.96343994140625	8.79999997778214	0	
90	40.4548558978613	0.96343994140625	8.89999997752966	0	
91	40.5548558976088	0.96343994140625	8.99999997727718	0	
92	40.6548558973564	0.9637451171875	9.09999997702471	0.00559486821293831	
93	40.7548558971039	0.9637451171875	9.19999997677223	-0.00356037053279579	
94	40.8548558968514	0.9637451171875	9.29999997651976	0.00101724872365594	
95	40.9548558965989	0.9637451171875	9.39999997626728	0	
96	41.0548558963465	0.9637451171875	9.49999997601481	0	
97	41.154855896094	0.9637451171875	9.59999997576233	0	
98	41.2548558958415	0.9637451171875	9.69999997550985	0	
99	41.354855895589	0.9637451171875	9.79999997525738	0	
100	41.4548558953366	0.9637451171875	9.8999999750049	0	
101	41.5548558950841	0.96405029296875	9.99999997475243	0.00559486821293831	
102	41.6548558948316	0.96405029296875	10.0999999745	-0.00356037053279579	
103	41.7548558945791	0.96405029296875	10.1999999742475	0.00101724872365594	
104	41.8548558943266	0.96405029296875	10.299999973995	0	
105	41.9548558940742	0.96405029296875	10.3999999737425	0	
106	42.0548558938217	0.96405029296875	10.49999997349	0	
107	42.1548558935692	0.96435546875	10.5999999732376	0.00559486821293831	
108	42.2548558933167	0.96435546875	10.6999999729851	-0.00356037053279579	
109	42.3548558930643	0.96435546875	10.7999999727326	0.00101724872365594	
110	42.4548558928118	0.96435546875	10.8999999724801	0	
111	42.5548558925593	0.96435546875	10.9999999722277	0	
112	42.6548558923068	0.96435546875	11.0999999719752	0	
113	42.7548558920544	0.96435546875	11.1999999717227	0	
114	42.8548558918019	0.96435546875	11.2999999714702	0	
115	42.9548558915494	0.96435546875	11.3999999712178	0	
116	43.0548558912969	0.96435546875	11.4999999709653	0	
