Index	Time (s)	WE(1).Potential (V)	Corrected time (s)	dWE(1).Potential/dt (V/s)	OCP value (V)
1	31.5908519202408	0.268157958984375	0	0	0.277819764380361
2	31.6908519199883	0.26983642578125	0.0999999997475243	0.0167849250137806	
3	31.7908519197358	0.272491455078125	0.199999999495049	0.0314335860311985	
4	31.8908519194833	0.270843505859375	0.299999999242573	-0.0555937029421329	
5	31.9908519192309	0.26910400390625	0.399999998990097	-0.00381475547328591	
6	32.0908519189784	0.270233154296875	0.499999998737621	0.0355026572942734	
7	32.1908519187259	0.271026611328125	0.599999998485146	-0.00442511634901166	
8	32.2908519184734	0.27252197265625	0.69999999823267	0.0219221282750368	
9	32.390851918221	0.276885986328125	0.799999997980194	0.0652068853378296	
10	32.4908519179685	0.27667236328125	0.899999997727718	-0.049846138805151	
11	32.590851917716	0.277374267578125	0.999999997475243	0.0299076829105616	
12	32.6908519174635	0.278228759765625	1.09999999722277	0.00676483288407326	
13	32.7908519172111	0.2794189453125	1.19999999697029	0.0141908908262849	
14	32.8908519169586	0.277496337890625	1.29999999671782	-0.0462857000529766	
15	32.9908519167061	0.276824951171875	1.39999999646534	0.0140891633927822	
16	33.0908519164536	0.277862548828125	1.49999999621286	0.0204470902681351	
17	33.1908519162012	0.2784423828125	1.59999999596039	-0.00371302873827517	
18	33.2908519159487	0.2811279296875	1.69999999570791	0.0459296554327011	
19	33.3908519156962	0.27947998046875	1.79999999545544	-0.0596119128167629	
20	33.4908519154437	0.279083251953125	1.89999999520296	0.0209048595279455	
21	33.5908519151913	0.277587890625	1.99999999495049	-0.0282800532877445	
22	33.6908519149388	0.277984619140625	2.09999999469801	0.0233971662819386	
23	33.7908519146863	0.27850341796875	2.19999999444553	-0.000101726815046277	
24	33.8908519144338	0.280548095703125	2.29999999419306	0.0327560342848301	
25	33.9908519141813	0.28265380859375	2.39999999394058	0.0164797436445951	
26	34.0908519139289	0.2821044921875	2.49999999368811	-0.0278222840279341	
27	34.1908519136764	0.280670166015625	2.59999999343563	-0.0128684416413307	
28	34.2908519134239	0.280975341796875	2.69999999318316	0.0204979535192251	
29	34.3908519131714	0.283660888671875	2.79999999293068	0.0408941805362701	
30	34.490851912919	0.282501220703125	2.8999999926782	-0.051575493067503	
31	34.5908519126665	0.279693603515625	2.99999999242573	-0.0289921425282955	
32	34.690851912414	0.28021240234375	3.09999999217325	0.038401871919632	
33	34.7908519121615	0.28070068359375	3.19999999192078	-0.00645965244621038	
34	34.8908519119091	0.28466796875	3.2999999916683	0.068767324090004	
35	34.9908519116566	0.283355712890625	3.39999999141583	-0.0687164589762688	
36	35.0908519114041	0.282135009765625	3.49999999116335	0.00615447200834751	
37	35.1908519111516	0.27886962890625	3.59999999091087	-0.049998726695776	
38	35.2908519108992	0.2799072265625	3.6999999906584	0.0530505329370499	
39	35.3908519106467	0.27972412109375	3.79999999040592	-0.0263472441583872	
40	35.4908519103942	0.281005859375	3.89999999015345	0.0290938690304756	
41	35.5908519101417	0.283447265625	3.99999998990097	0.0291955955326557	
42	35.6908519098893	0.284912109375	4.0999999896485	0.00264489720575511	
43	35.7908519096368	0.2843017578125	4.19999998939602	-0.0201419088989496	
44	35.8908519093843	0.28460693359375	4.29999998914354	0.0175987388938665	
45	35.9908519091318	0.28424072265625	4.39999998889107	-0.012308944016695	
46	36.0908519088794	0.282379150390625	4.49999998863859	-0.0288395509123802	
47	36.1908519086269	0.283172607421875	4.59999998838612	0.0350448861718178	
48	36.2908519083744	0.285675048828125	4.69999998813364	0.0304163172841072	
49	36.3908519081219	0.283966064453125	4.79999998788116	-0.0578825548291206	
50	36.4908519078695	0.28399658203125	4.89999998762869	0.0288395509123802	
51	36.590851907617	0.282989501953125	4.99999998737621	-0.0245161615312099	
52	36.6908519073645	0.281829833984375	5.09999998712374	-0.00940973032265902	
53	36.790851907112	0.2828369140625	5.19999998687126	0.02863609790802	
54	36.8908519068596	0.281219482421875	5.29999998661879	-0.0452684313058853	
55	36.9908519066071	0.28082275390625	5.39999998636631	0.0149538414552808	
56	37.0908519063546	0.282012939453125	5.49999998611383	0.0210574511438608	
57	37.1908519061021	0.2838134765625	5.59999998586136	0.0178021918982267	
58	37.2908519058496	0.28607177734375	5.69999998560888	0.0243635717779398	
59	37.3908519055972	0.2850341796875	5.79999998535641	-0.0393682755529881	
60	37.4908519053447	0.284027099609375	5.89999998510393	0.00116985838394612	
61	37.5908519050922	0.282012939453125	5.99999998485146	-0.02863609790802	
62	37.6908519048397	0.28271484375	6.09999998459898	0.0330103524029255	
63	37.7908519045873	0.28179931640625	6.1999999843465	-0.0316879004240036	
64	37.8908519043348	0.27874755859375	6.29999998409403	-0.0429287143051624	
65	37.9908519040823	0.279022216796875	6.39999998384155	0.0375880561769009	
66	38.0908519038298	0.280914306640625	6.49999998358908	0.0213117673993111	
67	38.1908519035774	0.281494140625	6.5999999833366	-0.0105287255719304	
68	38.2908519033249	0.278106689453125	6.69999998308413	-0.0625619888305664	
69	38.3908519030724	0.277191162109375	6.79999998283165	0.0246687512844801	
70	38.4908519028199	0.27777099609375	6.89999998257917	0.0100200911983848	
71	38.5908519025675	0.2777099609375	6.9999999823267	-0.0109356325119734	
72	38.690851902315	0.27685546875	7.09999998207422	-0.0130210323259234	
73	38.7908519020625	0.27978515625	7.19999998182175	0.0634775310754776	
74	38.89085190181	0.28082275390625	7.29999998156927	-0.0180056467652321	
75	38.9908519015576	0.28448486328125	7.3999999813168	0.0647999793291092	
76	39.0908519013051	0.281097412109375	7.49999998106432	-0.101370766758919	
77	39.1908519010526	0.2828369140625	7.59999998081184	0.0836194381117821	
78	39.2908519008001	0.281097412109375	7.69999998055937	-0.0634775310754776	
79	39.3908519005477	0.27520751953125	7.79999998030689	-0.0818900838494301	
80	39.4908519002952	0.276031494140625	7.89999998005442	0.0780244618654251	
81	39.5908519000427	0.275787353515625	7.99999997980194	-0.0337224379181862	
82	39.6908518997902	0.278594970703125	8.09999997954947	0.0570687428116798	
83	39.7908518995378	0.2801513671875	8.19999997929699	-0.00503547722473741	
84	39.8908518992853	0.278961181640625	8.29999997904451	-0.0306197702884674	
85	39.9908518990328	0.279541015625	8.39999997879204	0.0297042299062014	
86	40.0908518987803	0.279571533203125	8.49999997853956	-0.0101726809516549	
87	40.1908518985279	0.2783203125	8.59999997828709	-0.0213626306504011	
88	40.2908518982754	0.275299072265625	8.69999997803461	-0.0406907238066196	
89	40.3908518980229	0.28021240234375	8.79999997778214	0.121156632900238	
90	40.4908518977704	0.28076171875	8.89999997752966	-0.0573230572044849	
91	40.590851897518	0.282562255859375	8.99999997727718	0.0429795794188976	
92	40.6908518972655	0.27923583984375	9.09999997702471	-0.0801607295870781	
93	40.790851897013	0.277130126953125	9.19999997677223	0.00620533572509885	
94	40.8908518967605	0.2763671875	9.29999997651976	-0.000508634082507342	
95	40.990851896508	0.274078369140625	9.39999997626728	-0.040080364793539	
96	41.0908518962556	0.275390625	9.49999997601481	0.0482185110449791	
97	41.1908518960031	0.27392578125	9.59999997576233	-0.0497952736914158	
98	41.2908518957506	0.277313232421875	9.69999997550985	0.0835685729980469	
99	41.3908518954981	0.279388427734375	9.79999997525738	-0.00635792594403028	
100	41.4908518952457	0.27838134765625	9.8999999750049	-0.0313827209174633	
101	41.5908518949932	0.275726318359375	9.99999997475243	-0.0300094094127417	
102	41.6908518947407	0.274749755859375	10.0999999745	0.00971491076052189	
103	41.7908518944882	0.27410888671875	10.1999999742475	-0.00920627638697624	
104	41.8908518942358	0.271881103515625	10.299999973995	-0.0366216525435448	
105	41.9908518939833	0.27581787109375	10.3999999737425	0.0960301086306572	
106	42.0908518937308	0.2767333984375	10.49999997349	-0.0365707874298096	
107	42.1908518934783	0.27783203125	10.5999999732376	0.0225833524018526	
108	42.2908518932259	0.2744140625	10.6999999729851	-0.0724294930696487	
109	42.3908518929734	0.274169921875	10.7999999727326	0.0390630960464478	
110	42.4908518927209	0.271087646484375	10.8999999724801	-0.0650542974472046	
111	42.5908518924684	0.273284912109375	10.9999999722277	0.0754304304718971	
112	42.690851892216	0.27105712890625	11.0999999719752	-0.0767528787255287	
113	42.7908518919635	0.272674560546875	11.1999999717227	0.0629688948392868	
114	42.890851891711	0.2720947265625	11.2999999714702	-0.0369268320500851	
115	42.9908518914585	0.27520751953125	11.3999999712178	0.0692250952124596	
116	43.0908518912061	0.273590087890625	11.4999999709653	-0.067902646958828	
117	43.1908518909536	0.272613525390625	11.5999999707128	0.0113425394520164	
118	43.2908518907011	0.271026611328125	11.6999999704603	-0.0230919867753983	
119	43.3908518904486	0.275848388671875	11.7999999702079	0.103659622371197	
120	43.4908518901962	0.274627685546875	11.8999999699554	-0.0839246213436127	
121	43.5908518899437	0.27569580078125	11.9999999697029	0.0498970001935959	
122	43.6908518896912	0.27264404296875	12.0999999694504	-0.0724803507328033	
123	43.7908518894387	0.275634765625	12.199999969198	0.0939955785870552	
124	43.8908518891863	0.272735595703125	12.2999999689455	-0.0982172340154648	
125	43.9908518889338	0.272216796875	12.399999968693	0.0342819355428219	
126	44.0908518886813	0.274627685546875	12.4999999684405	0.0405889973044395	
127	44.1908518884288	0.274658203125	12.5999999681881	-0.0292973220348358	
128	44.2908518881763	0.271575927734375	12.6999999679356	-0.0488288700580597	
129	44.3908518879239	0.273284912109375	12.7999999676831	0.0673940107226372	
130	44.4908518876714	0.275848388671875	12.8999999674306	0.0167849250137806	
131	44.5908518874189	0.275054931640625	12.9999999671782	-0.0387579165399075	
132	44.6908518871664	0.2744140625	13.0999999669257	0.00605274550616741	
133	44.790851886914	0.274810791015625	13.1999999666732	0.0121054910123348	
134	44.8908518866615	0.272369384765625	13.2999999664207	-0.0515246316790581	
135	44.990851886409	0.275634765625	13.3999999661683	0.0896721854805946	
136	45.0908518861565	0.274322509765625	13.4999999659158	-0.0702932253479958	
137	45.1908518859041	0.27642822265625	13.5999999656633	0.0647999793291092	
138	45.2908518856516	0.275146484375	13.6999999654108	-0.052440170198679	
139	45.3908518853991	0.2783203125	13.7999999651583	0.0801607295870781	
140	45.4908518851466	0.275604248046875	13.8999999649059	-0.0910963639616966	
141	45.5908518848942	0.275604248046875	13.9999999646534	0.0422674901783466	
142	45.6908518846417	0.27813720703125	14.0999999644009	0.0373846031725407	
143	45.7908518843892	0.27557373046875	14.1999999641484	-0.0765494257211685	
144	45.8908518841367	0.27349853515625	14.299999963896	0.000305180437862873	
145	45.9908518838843	0.2762451171875	14.3999999636435	0.066020704805851	
146	46.0908518836318	0.278533935546875	14.499999963391	0.00300094089470804	
147	46.1908518833793	0.278045654296875	14.5999999631385	-0.0264998339116573	
148	46.2908518831268	0.27227783203125	14.6999999628861	-0.0924188122153282	
149	46.3908518828744	0.274505615234375	14.7999999626336	0.10650797188282	
150	46.4908518826219	0.27545166015625	14.8999999623811	-0.0278731472790241	
151	46.5908518823694	0.273406982421875	14.9999999621286	-0.0410976335406303	
152	46.6908518821169	0.273681640625	15.0999999618762	0.0320439450442791	
153	46.7908518818645	0.275390625	15.1999999616237	0.0213117673993111	
154	46.890851881612	0.2734375	15.2999999613712	-0.0548307523131371	
155	46.9908518813595	0.277008056640625	15.3999999611187	0.09394471347332	
156	47.090851881107	0.277679443359375	15.4999999608663	-0.0358587019145489	
157	47.1908518808546	0.27783203125	15.5999999606138	0.00686655985191464	
158	47.2908518806021	0.280303955078125	15.6999999603613	0.0457770675420761	
159	47.3908518803496	0.274322509765625	15.7999999601088	-0.137992426753044	
160	47.4908518800971	0.275970458984375	15.8999999598564	0.108237326145172	
161	47.5908518798446	0.27783203125	15.9999999596039	-0.00503547722473741	
162	47.6908518795922	0.2752685546875	16.0999999593514	-0.0632232129573822	
163	47.7908518793397	0.2796630859375	16.1999999590989	0.116680651903152	
164	47.8908518790872	0.28082275390625	16.2999999588465	-0.0385544635355473	
165	47.9908518788347	0.27886962890625	16.399999958594	-0.0346888415515423	
166	48.0908518785823	0.2760009765625	16.4999999583415	-0.0259403381496668	
167	48.1908518783298	0.277618408203125	16.599999958089	0.0566109716892242	
168	48.2908518780773	0.2796630859375	16.6999999578366	0.00905368663370609	
169	48.3908518778248	0.279876708984375	16.7999999575841	-0.0145469345152378	
170	48.4908518775724	0.281005859375	16.8999999573316	0.0250247959047556	
171	48.5908518773199	0.279083251953125	16.9999999570791	-0.0477098748087883	
172	48.6908518770674	0.27801513671875	17.0999999568267	0.00661224266514182	
173	48.7908518768149	0.277984619140625	17.1999999565742	0.00549324788153172	
174	48.8908518765625	0.27764892578125	17.2999999563217	-0.00935886707156897	
175	48.99085187631	0.2774658203125	17.3999999560692	0.00045777065679431	
176	49.0908518760575	0.27606201171875	17.4999999558167	-0.0247196163982153	
177	49.190851875805	0.277008056640625	17.5999999555643	0.0331120789051056	
178	49.2908518755526	0.278961181640625	17.6999999553118	0.0200910456478596	
179	49.3908518753001	0.275299072265625	17.7999999550593	-0.0867729708552361	
180	49.4908518750476	0.27691650390625	17.8999999548068	0.0788891464471817	
181	49.5908518747951	0.2762451171875	17.9999999545544	-0.043386485427618	
182	49.6908518745427	0.27362060546875	18.0999999543019	-0.0348922982811928	
183	49.7908518742902	0.271820068359375	18.1999999540494	-0.00462856981903315	
184	49.8908518740377	0.278167724609375	18.2999999537969	0.128633558750153	
185	49.9908518737852	0.27508544921875	18.3999999535445	-0.136568248271942	
186	50.0908518735328	0.276214599609375	18.499999953292	0.0778210088610649	
187	50.1908518732803	0.27789306640625	18.5999999530395	0.00732433050870895	
188	50.2908518730278	0.275787353515625	18.699999952787	-0.0544238463044167	
189	50.3908518727753	0.273529052734375	18.7999999525346	-0.0112408129498363	
190	50.4908518725229	0.271942138671875	18.8999999522821	-0.00976577401161194	
191	50.5908518722704	0.27374267578125	18.9999999520296	0.0439968481659889	
192	50.6908518720179	0.2767333984375	19.0999999517771	0.0285343714058399	
193	50.7908518717654	0.277557373046875	19.1999999515247	-0.0137839829549193	
194	50.890851871513	0.278564453125	19.2999999512722	0.018819460645318	
195	50.9908518712605	0.27685546875	19.3999999510197	-0.0403346829116344	
196	51.090851871008	0.27813720703125	19.4999999507672	0.0467943325638771	
197	51.1908518707555	0.274993896484375	19.5999999505148	-0.0782787799835205	
198	51.290851870503	0.275390625	19.6999999502623	0.0482185110449791	
199	51.3908518702506	0.2764892578125	19.7999999500098	0.00503547722473741	
200	51.4908518699981	0.274444580078125	19.8999999497573	-0.048981461673975	
201	51.5908518697456	0.277557373046875	19.9999999495049	0.0845858454704285	
202	51.6908518694931	0.278167724609375	20.0999999492524	-0.031942218542099	
203	51.7908518692407	0.27496337890625	20.1999999489999	-0.0554919764399529	
204	51.8908518689882	0.275726318359375	20.2999999487474	0.0534065775573254	
205	51.9908518687357	0.274261474609375	20.399999948495	-0.0464382916688919	
206	52.0908518684832	0.2720947265625	20.4999999482425	-0.0200910456478596	
207	52.1908518682308	0.271636962890625	20.59999994799	0.0120037635788321	
208	52.2908518679783	0.271331787109375	20.6999999477375	-0.00747692072764039	
209	52.3908518677258	0.272979736328125	20.799999947485	0.0322473980486393	
210	52.4908518674733	0.27239990234375	20.8999999472326	-0.0308740884065628	
211	52.5908518672209	0.27294921875	20.9999999469801	0.0223290361464024	
212	52.6908518669684	0.27105712890625	21.0999999467276	-0.0430304408073425	
213	52.7908518667159	0.27020263671875	21.1999999464751	0.00823987182229757	
214	52.8908518664634	0.26727294921875	21.2999999462227	-0.0500495918095112	
215	52.990851866211	0.268646240234375	21.3999999459702	0.0565092451870441	
216	53.0908518659585	0.266326904296875	21.4999999457177	-0.0683095529675484	
217	53.190851865706	0.267364501953125	21.5999999454652	0.0506599545478821	
218	53.2908518654535	0.268951416015625	21.6999999452128	0.00925713963806629	
219	53.3908518652011	0.26873779296875	21.7999999449603	-0.0189720503985882	
220	53.4908518649486	0.265716552734375	21.8999999447078	-0.0476081483066082	
221	53.5908518646961	0.267303466796875	21.9999999444553	0.0636301189661026	
222	53.6908518644436	0.26568603515625	22.0999999442029	-0.0582385994493961	
223	53.7908518641912	0.269500732421875	22.1999999439504	0.094097301363945	
224	53.8908518639387	0.268035888671875	22.2999999436979	-0.0767528787255287	
225	53.9908518636862	0.267852783203125	22.3999999434454	0.0264489706605673	
226	54.0908518634337	0.269195556640625	22.499999943193	0.0218712650239468	
227	54.1908518631813	0.269622802734375	22.5999999429405	-0.00844332575798035	
228	54.2908518629288	0.269866943359375	22.699999942688	0.00396734569221735	
229	54.3908518626763	0.26959228515625	22.7999999424355	-0.00645965244621038	
230	54.4908518624238	0.266082763671875	22.8999999421831	-0.0603239983320236	
231	54.5908518621713	0.264251708984375	22.9999999419306	0.00645965244621038	
232	54.6908518619189	0.266845703125	23.0999999416781	0.0572213307023048	
233	54.7908518616664	0.27227783203125	23.1999999414256	0.0632232129573822	
234	54.8908518614139	0.26806640625	23.2999999411732	-0.131939679384232	
235	54.9908518611614	0.270965576171875	23.3999999409207	0.120393685996532	
236	55.090851860909	0.268310546875	23.4999999406682	-0.096538744866848	
237	55.1908518606565	0.26678466796875	23.5999999404157	0.0126649886369705	
238	55.290851860404	0.265869140625	23.6999999401633	-0.0078329648822546	
239	55.3908518601515	0.267486572265625	23.7999999399108	0.035248339176178	
240	55.4908518598991	0.267852783203125	23.8999999396583	-0.0152081586420536	
241	55.5908518596466	0.26788330078125	23.9999999394058	0.0016784924082458	
242	55.6908518593941	0.266937255859375	24.0999999391533	-0.0164797436445951	
243	55.7908518591416	0.268402099609375	24.1999999389009	0.0379949659109116	
244	55.8908518588892	0.26556396484375	24.2999999386484	-0.0722768977284431	
245	55.9908518586367	0.26806640625	24.3999999383959	0.0838737562298775	
246	56.0908518583842	0.26995849609375	24.4999999381434	-0.00396734569221735	
247	56.1908518581317	0.269439697265625	24.599999937891	-0.0232445765286684	
248	56.2908518578793	0.272308349609375	24.6999999376385	0.0649525672197342	
249	56.3908518576268	0.273712158203125	24.799999937386	-0.00946059357374907	
250	56.4908518573743	0.271728515625	24.8999999371335	-0.0431830324232578	
251	56.5908518571218	0.26812744140625	24.9999999368811	-0.0381984189152718	
252	56.6908518568694	0.269989013671875	25.0999999366286	0.0695302784442902	
253	56.7908518566169	0.27044677734375	25.1999999363761	-0.025329977273941	
254	56.8908518563644	0.268218994140625	25.2999999361236	-0.0399786382913589	
255	56.9908518561119	0.268402099609375	25.3999999358712	0.0308740884065628	
256	57.0908518558595	0.271697998046875	25.4999999356187	0.0508634075522423	
257	57.190851855607	0.2698974609375	25.5999999353662	-0.0708527266979218	
258	57.2908518553545	0.268157958984375	25.6999999351137	0.000101726815046277	
259	57.390851855102	0.272796630859375	25.7999999348613	0.0993362292647362	
260	57.4908518548496	0.269134521484375	25.8999999346088	-0.127056792378426	
261	57.5908518545971	0.26641845703125	25.9999999343563	0.0083924625068903	
262	57.6908518543446	0.2677001953125	26.0999999341038	0.0429795794188976	
263	57.7908518540921	0.267120361328125	26.1999999338514	-0.0346379801630974	
264	57.8908518538396	0.269378662109375	26.2999999335989	0.052440170198679	
265	57.9908518535872	0.267333984375	26.3999999333464	-0.0657663866877556	
266	58.0908518533347	0.26849365234375	26.4999999330939	0.0526436269283295	
