Index	Time (s)	WE(1).Potential (V)	Corrected time (s)	dWE(1).Potential/dt (V/s)	OCP value (V)
1	31.7298579198898	0.6427001953125	0	0	0.654883291207108
2	31.8298579196373	0.64483642578125	0.0999999997475243	0.0213622227311134	
3	31.9298579193849	0.64727783203125	0.199999999495049	0.0259398426860571	
4	32.0298579191324	0.64727783203125	0.299999999242573	-0.0213622227311134	
5	32.1298579188799	0.6500244140625	0.399999998990097	0.058491799980402	
6	32.2298579186274	0.6500244140625	0.499999998737621	-0.0320433340966702	
7	32.329857918375	0.6500244140625	0.599999998485146	0.00915523897856474	
8	32.4298579181225	0.6500244140625	0.69999999823267	0	
9	32.52985791787	0.64971923828125	0.799999997980194	-0.00559486821293831	
10	32.6298579176175	0.64971923828125	0.899999997727718	0.00356037053279579	
11	32.7298579173651	0.6500244140625	0.999999997475243	0.00457761948928237	
12	32.8298579171126	0.65032958984375	1.09999999722277	0.00203449744731188	
13	32.9298579168601	0.650634765625	1.19999999697029	0.00305174617096782	
14	33.0298579166076	0.650634765625	1.29999999671782	-0.00254312180913985	
15	33.1298579163551	0.65216064453125	1.39999999646534	0.0289915893226862	
16	33.2298579161027	0.65216064453125	1.49999999621286	-0.0178018528968096	
17	33.3298579158502	0.65185546875	1.59999999596039	-0.00050862436182797	
18	33.4298579155977	0.65155029296875	1.69999999570791	-0.00203449744731188	
19	33.5298579153452	0.65093994140625	1.79999999545544	-0.00864661391824484	
20	33.6298579150928	0.65093994140625	1.89999999520296	0.00610349234193563	
21	33.7298579148403	0.65185546875	1.99999999495049	0.0147501062601805	
22	33.8298579145878	0.65277099609375	2.09999999469801	0.00610349234193563	
23	33.9298579143353	0.654296875	2.19999999444553	0.0203449744731188	
24	34.0298579140829	0.65399169921875	2.29999999419306	-0.0203449744731188	
25	34.1298579138304	0.65216064453125	2.39999999394058	-0.0249225944280624	
26	34.2298579135779	0.65277099609375	2.49999999368811	0.0315347090363503	
27	34.3298579133254	0.65277099609375	2.59999999343563	-0.0132242338731885	
28	34.429857913073	0.65277099609375	2.69999999318316	0.00203449744731188	
29	34.5298579128205	0.653076171875	2.79999999293068	0.00559486821293831	
30	34.629857912568	0.6536865234375	2.8999999926782	0.00762936566025019	
31	34.7298579123155	0.65277099609375	2.99999999242573	-0.022888096049428	
32	34.8298579120631	0.65277099609375	3.09999999217325	0.0127156088128686	
33	34.9298579118106	0.65277099609375	3.19999999192078	-0.00305174617096782	
34	35.0298579115581	0.65277099609375	3.2999999916683	0	
35	35.1298579113056	0.65277099609375	3.39999999141583	0	
36	35.2298579110532	0.6536865234375	3.49999999116335	0.0167846046388149	
37	35.3298579108007	0.65399169921875	3.59999999091087	-0.0050862436182797	
38	35.4298579105482	0.654296875	3.6999999906584	0.0050862436182797	
39	35.5298579102957	0.65460205078125	3.79999999040592	0.00305174617096782	
40	35.6298579100433	0.654296875	3.89999999015345	-0.00813798978924751	
41	35.7298579097908	0.654296875	3.99999998990097	0.00457761948928237	
42	35.8298579095383	0.65399169921875	4.0999999896485	-0.00661211693659425	
43	35.9298579092858	0.654296875	4.19999998939602	0.00915523897856474	
44	36.0298579090334	0.6536865234375	4.29999998914354	-0.0157673545181751	
45	36.1298579087809	0.6536865234375	4.39999998889107	0.00813798978924751	
46	36.2298579085284	0.65399169921875	4.49999998863859	0.00356037053279579	
47	36.3298579082759	0.65521240234375	4.59999998838612	0.0188191011548042	
48	36.4298579080235	0.65460205078125	4.69999998813364	-0.0244139693677425	
49	36.529857907771	0.65399169921875	4.79999998788116	0	
50	36.6298579075185	0.65338134765625	4.89999998762869	-0.00610349234193563	
51	36.729857907266	0.65399169921875	4.99999998737621	0.016275979578495	
52	36.8298579070135	0.6536865234375	5.09999998712374	-0.0147501062601805	
53	36.9298579067611	0.65399169921875	5.19999998687126	0.0111897364258766	
54	37.0298579065086	0.65399169921875	5.29999998661879	-0.00457761948928237	
55	37.1298579062561	0.6549072265625	5.39999998636631	0.0178018528968096	
56	37.2298579060036	0.6549072265625	5.49999998611383	-0.0106811113655567	
57	37.3298579057512	0.654296875	5.59999998586136	-0.00813798978924751	
58	37.4298579054987	0.65399169921875	5.69999998560888	0.00152587308548391	
59	37.5298579052462	0.65338134765625	5.79999998535641	-0.00966386310756207	
60	37.6298579049937	0.65399169921875	5.89999998510393	0.0172932278364897	
61	37.7298579047413	0.654296875	5.99999998485146	-0.00356037053279579	
62	37.8298579044888	0.655517578125	6.09999998459898	0.0208535995334387	
63	37.9298579042363	0.65521240234375	6.1999999843465	-0.0188191011548042	
64	38.0298579039838	0.65521240234375	6.29999998409403	0.00762936566025019	
65	38.1298579037314	0.65460205078125	6.39999998384155	-0.0122069846838713	
66	38.2298579034789	0.65399169921875	6.49999998358908	-0.00406899489462376	
67	38.3298579032264	0.6536865234375	6.5999999833366	-0.00050862436182797	
68	38.4298579029739	0.65338134765625	6.69999998308413	-0.00406899489462376	
69	38.5298579027215	0.654296875	6.79999998283165	0.0193277262151241	
70	38.629857902469	0.6549072265625	6.89999998257917	-0.00050862436182797	
71	38.7298579022165	0.65521240234375	6.9999999823267	0.00152587308548391	
72	38.829857901964	0.6549072265625	7.09999998207422	-0.00712074106559157	
73	38.9298579017116	0.654296875	7.19999998182175	-0.00661211693659425	
74	39.0298579014591	0.65460205078125	7.29999998156927	0.0116983605548739	
75	39.1298579012066	0.65399169921875	7.3999999813168	-0.0167846046388149	
76	39.2298579009541	0.653076171875	7.49999998106432	-0.00864661391824484	
77	39.3298579007017	0.65399169921875	7.59999998081184	0.0254312176257372	
78	39.4298579004492	0.65460205078125	7.69999998055937	-0.00254312180913985	
79	39.5298579001967	0.654296875	7.79999998030689	-0.00966386310756207	
80	39.6298578999442	0.654296875	7.89999998005442	0.00559486821293831	
81	39.7298578996918	0.65460205078125	7.99999997980194	0.00457761948928237	
82	39.8298578994393	0.65277099609375	8.09999997954947	-0.0371295772492886	
83	39.9298578991868	0.6524658203125	8.19999997929699	0.0167846046388149	
84	40.0298578989343	0.65155029296875	8.29999997904451	-0.0193277262151241	
85	40.1298578986818	0.65277099609375	8.39999997879204	0.0320433340966702	
86	40.2298578984294	0.654296875	8.49999997853956	0.0106811113655567	
87	40.3298578981769	0.65460205078125	8.59999997828709	-0.00813798978924751	
88	40.4298578979244	0.65399169921875	8.69999997803461	-0.00966386310756207	
89	40.5298578976719	0.6536865234375	8.79999997778214	0.00254312180913985	
90	40.6298578974195	0.653076171875	8.89999997752966	-0.00966386310756207	
91	40.729857897167	0.6536865234375	8.99999997727718	0.0172932278364897	
92	40.8298578969145	0.6536865234375	9.09999997702471	-0.00915523897856474	
93	40.929857896662	0.6536865234375	9.19999997677223	0.00203449744731188	
94	41.0298578964096	0.654296875	9.29999997651976	0.0111897364258766	
95	41.1298578961571	0.654296875	9.39999997626728	-0.00712074106559157	
96	41.2298578959046	0.65521240234375	9.49999997601481	0.0188191011548042	
97	41.3298578956521	0.6549072265625	9.59999997576233	-0.016275979578495	
98	41.4298578953997	0.6549072265625	9.69999997550985	0.00661211693659425	
99	41.5298578951472	0.6549072265625	9.79999997525738	-0.00101724872365594	
100	41.6298578948947	0.65399169921875	9.8999999750049	-0.0167846046388149	
101	41.7298578946422	0.654296875	9.99999997475243	0.016275979578495	
102	41.8298578943898	0.654296875	10.0999999745	-0.00661211693659425	
103	41.9298578941373	0.65460205078125	10.1999999742475	0.00661211693659425	
104	42.0298578938848	0.654296875	10.299999973995	-0.00915523897856474	
105	42.1298578936323	0.653076171875	10.3999999737425	-0.0178018528968096	
106	42.2298578933799	0.653076171875	10.49999997349	0.0132242338731885	
107	42.3298578931274	0.65277099609375	10.5999999732376	-0.00966386310756207	
108	42.4298578928749	0.65277099609375	10.6999999729851	0.00356037053279579	
109	42.5298578926224	0.65399169921875	10.7999999727326	0.0213622227311134	
110	42.62985789237	0.65399169921875	10.8999999724801	-0.0142414821311831	
111	42.7298578921175	0.65460205078125	10.9999999722277	0.0152587313205004	
112	42.829857891865	0.65399169921875	11.0999999719752	-0.0183104779571295	
113	42.9298578916125	0.654296875	11.1999999717227	0.0147501062601805	
114	43.0298578913601	0.6524658203125	11.2999999714702	-0.0391640774905682	
115	43.1298578911076	0.65277099609375	11.3999999712178	0.0279743392020464	
116	43.2298578908551	0.6524658203125	11.4999999709653	-0.0152587313205004	
117	43.3298578906026	0.6524658203125	11.5999999707128	0.00457761948928237	
118	43.4298578903501	0.65277099609375	11.6999999704603	0.00457761948928237	
119	43.5298578900977	0.6536865234375	11.7999999702079	0.0132242338731885	
120	43.6298578898452	0.6536865234375	11.8999999699554	-0.00966386310756207	
121	43.7298578895927	0.65338134765625	11.9999999697029	-0.00254312180913985	
122	43.8298578893402	0.65277099609375	12.0999999694504	-0.00762936566025019	
123	43.9298578890878	0.65185546875	12.199999969198	-0.0106811113655567	
124	44.0298578888353	0.65216064453125	12.2999999689455	0.0142414821311831	
125	44.1298578885828	0.653076171875	12.399999968693	0.0101724872365594	
126	44.2298578883303	0.65185546875	12.4999999684405	-0.0320433340966702	
127	44.3298578880779	0.65185546875	12.5999999681881	0.0172932278364897	
128	44.4298578878254	0.6524658203125	12.6999999679356	0.00712074106559157	
129	44.5298578875729	0.65185546875	12.7999999676831	-0.0183104779571295	
130	44.6298578873204	0.65155029296875	12.8999999674306	0.00356037053279579	
131	44.729857887068	0.6512451171875	12.9999999671782	-0.00406899489462376	
132	44.8298578868155	0.65093994140625	13.0999999669257	-0.00305174617096782	
133	44.929857886563	0.65093994140625	13.1999999666732	0.00254312180913985	
134	45.0298578863105	0.64971923828125	13.2999999664207	-0.0233967211097479	
135	45.1298578860581	0.6500244140625	13.3999999661683	0.0198363494127989	
136	45.2298578858056	0.650634765625	13.4999999659158	0.00356037053279579	
137	45.3298578855531	0.65155029296875	13.5999999656633	0.0106811113655567	
138	45.4298578853006	0.65093994140625	13.6999999654108	-0.0198363494127989	
139	45.5298578850482	0.650634765625	13.7999999651583	0.00457761948928237	
140	45.6298578847957	0.650634765625	13.8999999649059	0.00152587308548391	
141	45.7298578845432	0.65093994140625	13.9999999646534	0.00457761948928237	
142	45.8298578842907	0.65155029296875	14.0999999644009	0.00762936566025019	
143	45.9298578840383	0.65185546875	14.1999999641484	-0.00050862436182797	
144	46.0298578837858	0.65216064453125	14.299999963896	0.00406899489462376	
145	46.1298578835333	0.6524658203125	14.3999999636435	0.00305174617096782	
146	46.2298578832808	0.65277099609375	14.499999963391	0.00305174617096782	
147	46.3298578830284	0.65216064453125	14.5999999631385	-0.0137328580021858	
148	46.4298578827759	0.65216064453125	14.6999999628861	0.00813798978924751	
149	46.5298578825234	0.6524658203125	14.7999999626336	0.00356037053279579	
150	46.6298578822709	0.65399169921875	14.8999999623811	0.0244139693677425	
151	46.7298578820185	0.6536865234375	14.9999999621286	-0.0223794728517532	
152	46.829857881766	0.654296875	15.0999999618762	0.0198363494127989	
153	46.9298578815135	0.6536865234375	15.1999999616237	-0.0193277262151241	
154	47.029857881261	0.65460205078125	15.2999999613712	0.0259398426860571	
155	47.1298578810085	0.653076171875	15.3999999611187	-0.0406899489462376	
156	47.2298578807561	0.65277099609375	15.4999999608663	0.0152587313205004	
157	47.3298578805036	0.653076171875	15.5999999606138	0.00406899489462376	
158	47.4298578802511	0.65277099609375	15.6999999603613	-0.0101724872365594	
159	47.5298578799986	0.6536865234375	15.7999999601088	0.0213622227311134	
160	47.6298578797462	0.65460205078125	15.8999999598564	0.0050862436182797	
161	47.7298578794937	0.65460205078125	15.9999999596039	-0.00762936566025019	
162	47.8298578792412	0.65460205078125	16.0999999593514	0.00305174617096782	
163	47.9298578789887	0.654296875	16.1999999590989	-0.00559486821293831	
164	48.0298578787363	0.65338134765625	16.2999999588465	-0.0132242338731885	
165	48.1298578784838	0.653076171875	16.399999958594	0.00406899489462376	
166	48.2298578782313	0.65338134765625	16.4999999583415	0.00610349234193563	
167	48.3298578779788	0.6536865234375	16.599999958089	0.00101724872365594	
168	48.4298578777264	0.65399169921875	16.6999999578366	0.00305174617096782	
169	48.5298578774739	0.6536865234375	16.7999999575841	-0.00813798978924751	
170	48.6298578772214	0.6536865234375	16.8999999573316	0.00457761948928237	
171	48.7298578769689	0.653076171875	16.9999999570791	-0.0122069846838713	
172	48.8298578767165	0.65277099609375	17.0999999568267	0.00152587308548391	
173	48.929857876464	0.65185546875	17.1999999565742	-0.0152587313205004	
174	49.0298578762115	0.65185546875	17.2999999563217	0.00966386310756207	
175	49.129857875959	0.65277099609375	17.3999999560692	0.0137328580021858	
176	49.2298578757066	0.653076171875	17.4999999558167	-0.0050862436182797	
177	49.3298578754541	0.65338134765625	17.5999999555643	0.0050862436182797	
178	49.4298578752016	0.65338134765625	17.6999999553118	-0.00254312180913985	
179	49.5298578749491	0.65277099609375	17.7999999550593	-0.0101724872365594	
180	49.6298578746967	0.6524658203125	17.8999999548068	0.00152587308548391	
181	49.7298578744442	0.65216064453125	17.9999999545544	-0.00406899489462376	
182	49.8298578741917	0.65216064453125	18.0999999543019	0.00254312180913985	
183	49.9298578739392	0.6524658203125	18.1999999540494	0.00457761948928237	
184	50.0298578736868	0.6524658203125	18.2999999537969	-0.00356037053279579	
185	50.1298578734343	0.65277099609375	18.3999999535445	0.00661211693659425	
186	50.2298578731818	0.65216064453125	18.499999953292	-0.0147501062601805	
187	50.3298578729293	0.65155029296875	18.5999999530395	-0.00305174617096782	
188	50.4298578726768	0.6512451171875	18.699999952787	-0.00050862436182797	
189	50.5298578724244	0.6512451171875	18.7999999525346	0.00152587308548391	
190	50.6298578721719	0.6512451171875	18.8999999522821	-0.00101724872365594	
191	50.7298578719194	0.65185546875	18.9999999520296	0.0111897364258766	
192	50.8298578716669	0.65185546875	19.0999999517771	-0.00712074106559157	
193	50.9298578714145	0.65185546875	19.1999999515247	0.00203449744731188	
194	51.029857871162	0.65155029296875	19.2999999512722	-0.00559486821293831	
195	51.1298578709095	0.65155029296875	19.3999999510197	0.00356037053279579	
196	51.229857870657	0.65155029296875	19.4999999507672	-0.00101724872365594	
197	51.3298578704046	0.6512451171875	19.5999999505148	-0.00559486821293831	
198	51.4298578701521	0.650634765625	19.6999999502623	-0.00762936566025019	
199	51.5298578698996	0.65155029296875	19.7999999500098	0.022888096049428	
200	51.6298578696471	0.65155029296875	19.8999999497573	-0.0127156088128686	
201	51.7298578693947	0.6512451171875	19.9999999495049	-0.00254312180913985	
202	51.8298578691422	0.65155029296875	20.0999999492524	0.00915523897856474	
203	51.9298578688897	0.65155029296875	20.1999999489999	-0.00457761948928237	
204	52.0298578686372	0.65093994140625	20.2999999487474	-0.0101724872365594	
205	52.1298578683848	0.65032958984375	20.399999948495	-0.00406899489462376	
206	52.2298578681323	0.64971923828125	20.4999999482425	-0.00610349234193563	
207	52.3298578678798	0.65155029296875	20.59999994799	0.0386554524302483	
208	52.4298578676273	0.65185546875	20.6999999477375	-0.0178018528968096	
209	52.5298578673749	0.65216064453125	20.799999947485	0.00813798978924751	
210	52.6298578671224	0.65216064453125	20.8999999472326	-0.00254312180913985	
211	52.7298578668699	0.65155029296875	20.9999999469801	-0.0101724872365594	
212	52.8298578666174	0.65155029296875	21.0999999467276	0.00712074106559157	
213	52.929857866365	0.65185546875	21.1999999464751	0.00356037053279579	
214	53.0298578661125	0.65155029296875	21.2999999462227	-0.00915523897856474	
215	53.12985786586	0.65185546875	21.3999999459702	0.0101724872365594	
216	53.2298578656075	0.6524658203125	21.4999999457177	0.00661211693659425	
217	53.3298578653551	0.65277099609375	21.5999999454652	-0.00050862436182797	
218	53.4298578651026	0.653076171875	21.6999999452128	0.00406899489462376	
219	53.5298578648501	0.653076171875	21.7999999449603	-0.00254312180913985	
220	53.6298578645976	0.65277099609375	21.8999999447078	-0.00457761948928237	
221	53.7298578643451	0.65277099609375	21.9999999444553	0.00356037053279579	
222	53.8298578640927	0.65155029296875	22.0999999442029	-0.0233967211097479	
223	53.9298578638402	0.65185546875	22.1999999439504	0.0198363494127989	
224	54.0298578635877	0.653076171875	22.2999999436979	0.0147501062601805	
225	54.1298578633352	0.6524658203125	22.3999999434454	-0.0244139693677425	
226	54.2298578630828	0.65277099609375	22.499999943193	0.0167846046388149	
227	54.3298578628303	0.65216064453125	22.5999999429405	-0.0167846046388149	
228	54.4298578625778	0.65185546875	22.699999942688	0.00254312180913985	
229	54.5298578623253	0.65185546875	22.7999999424355	0.00152587308548391	
230	54.6298578620729	0.6512451171875	22.8999999421831	-0.0122069846838713	
231	54.7298578618204	0.6512451171875	22.9999999419306	0.00712074106559157	
232	54.8298578615679	0.65185546875	23.0999999416781	0.00915523897856474	
233	54.9298578613154	0.6524658203125	23.1999999414256	0.00406899489462376	
234	55.029857861063	0.65185546875	23.2999999411732	-0.016275979578495	
235	55.1298578608105	0.65093994140625	23.3999999409207	-0.00762936566025019	
236	55.229857860558	0.6500244140625	23.4999999406682	-0.00813798978924751	
237	55.3298578603055	0.64971923828125	23.5999999404157	0.00203449744731188	
238	55.4298578600531	0.64971923828125	23.6999999401633	0.00050862436182797	
239	55.5298578598006	0.650634765625	23.7999999399108	0.0157673545181751	
240	55.6298578595481	0.65093994140625	23.8999999396583	-0.0050862436182797	
241	55.7298578592956	0.6512451171875	23.9999999394058	0.0050862436182797	
242	55.8298578590432	0.65155029296875	24.0999999391533	0.00305174617096782	
243	55.9298578587907	0.65185546875	24.1999999389009	0.00305174617096782	
244	56.0298578585382	0.65032958984375	24.2999999386484	-0.0305174626410007	
245	56.1298578582857	0.65093994140625	24.3999999383959	0.0300088375806808	
246	56.2298578580333	0.6494140625	24.4999999381434	-0.0401813238859177	
247	56.3298578577808	0.64971923828125	24.599999937891	0.0254312176257372	
248	56.4298578575283	0.6500244140625	24.6999999376385	-0.00305174617096782	
249	56.5298578572758	0.65032958984375	24.799999937386	0.00305174617096782	
250	56.6298578570234	0.650634765625	24.8999999371335	0.00305174617096782	
251	56.7298578567709	0.6500244140625	24.9999999368811	-0.0137328580021858	
252	56.8298578565184	0.65032958984375	25.0999999366286	0.0137328580021858	
253	56.9298578562659	0.65093994140625	25.1999999363761	0.00559486821293831	
254	57.0298578560135	0.65032958984375	25.2999999361236	-0.0172932278364897	
255	57.129857855761	0.6512451171875	25.3999999358712	0.0259398426860571	
256	57.2298578555085	0.650634765625	25.4999999356187	-0.0239053443074226	
257	57.329857855256	0.65185546875	25.5999999353662	0.0325519591569901	
258	57.4298578550035	0.65093994140625	25.6999999351137	-0.03306058421731	
259	57.5298578547511	0.65032958984375	25.7999999348613	0.00356037053279579	
260	57.6298578544986	0.64971923828125	25.8999999346088	-0.00712074106559157	
261	57.7298578542461	0.64910888671875	25.9999999343563	-0.00610349234193563	
262	57.8298578539936	0.64971923828125	26.0999999341038	0.016275979578495	
263	57.9298578537412	0.6500244140625	26.1999999338514	-0.00356037053279579	
264	58.0298578534887	0.6500244140625	26.2999999335989	-0.00152587308548391	
265	58.1298578532362	0.65093994140625	26.3999999333464	0.0178018528968096	
266	58.2298578529837	0.65093994140625	26.4999999330939	-0.0106811113655567	
267	58.3298578527313	0.6512451171875	26.5999999328415	0.00864661391824484	
268	58.4298578524788	0.6512451171875	26.699999932589	-0.00356037053279579	
