Index	Time (s)	WE(1).Potential (V)	Corrected time (s)	dWE(1).Potential/dt (V/s)	OCP value (V)
1	31.6958129199758	0.467254638671875	0	0	0.471969604492188
2	31.7958129197233	0.468719482421875	0.0999999997475243	0.0146483816206455	
3	31.8958129194708	0.46929931640625	0.199999999495049	0.00137328577693552	
4	31.9958129192183	0.468353271484375	0.299999999242573	-0.0192260015755892	
5	32.0958129189659	0.4700927734375	0.399999998990097	0.0448606684803963	
6	32.1958129187134	0.47119140625	0.499999998737621	-0.00330605846829712	
7	32.2958129184609	0.47113037109375	0.599999998485146	-0.00813798978924751	
8	32.3958129182084	0.471588134765625	0.69999999823267	0.0127664711326361	
9	32.495812917956	0.472259521484375	0.799999997980194	0.00676470389589667	
10	32.5958129177035	0.4736328125	0.899999997727718	0.0188699644058943	
11	32.695812917451	0.47314453125	0.999999997475243	-0.022735508158803	
12	32.7958129171985	0.473419189453125	1.09999999722277	0.0153095936402678	
13	32.8958129169461	0.47320556640625	1.19999999697029	-0.00874833948910236	
14	32.9958129166936	0.472564697265625	1.29999999671782	-0.00834143999963999	
15	33.0958129164411	0.47344970703125	1.39999999646534	0.0229898206889629	
16	33.1958129161886	0.47296142578125	1.49999999621286	-0.0214130859822035	
17	33.2958129159362	0.473876953125	1.59999999596039	0.0254312176257372	
18	33.3958129156837	0.473876953125	1.69999999570791	-0.0123087093234062	
19	33.4958129154312	0.473663330078125	1.79999999545544	-0.000864661415107548	
20	33.5958129151787	0.473785400390625	1.89999999520296	0.00473020644858479	
21	33.6958129149263	0.473876953125	1.99999999495049	-0.000457761925645173	
22	33.7958129146738	0.472869873046875	2.09999999469801	-0.0191242769360542	
23	33.8958129144213	0.472198486328125	2.19999999444553	-0.000254312180913985	
24	33.9958129141688	0.473297119140625	2.29999999419306	0.0246174186468124	
25	34.0958129139163	0.4735107421875	2.39999999394058	-0.0111388731747866	
26	34.1958129136639	0.4737548828125	2.49999999368811	0.00564573053270578	
27	34.2958129134114	0.474517822265625	2.59999999343563	0.0118509475141764	
28	34.3958129131589	0.473785400390625	2.69999999318316	-0.0215148106217384	
29	34.4958129129064	0.472259521484375	2.79999999293068	-0.0168863292783499	
30	34.595812912654	0.472625732421875	2.8999999926782	0.0220742970705032	
31	34.6958129124015	0.473236083984375	2.99999999242573	0.00183104770258069	
32	34.795812912149	0.47320556640625	3.09999999217325	-0.00645952951163054	
33	34.8958129118965	0.473968505859375	3.19999999192078	0.01637770421803	
34	34.9958129116441	0.474090576171875	3.2999999916683	-0.00676470389589667	
35	35.0958129113916	0.47442626953125	3.39999999141583	0.00727332849055529	
36	35.1958129111391	0.473907470703125	3.49999999116335	-0.013020783662796	
37	35.2958129108866	0.4720458984375	3.59999999091087	-0.0269570909440517	
38	35.3958129106342	0.47283935546875	3.6999999906584	0.0345355942845345	
39	35.4958129103817	0.4730224609375	3.79999999040592	-0.0121052600443363	
40	35.5958129101292	0.471893310546875	3.89999999015345	-0.0201923865824938	
41	35.6958129098767	0.473480224609375	3.99999998990097	0.0428770333528519	
42	35.7958129096243	0.473541259765625	4.0999999896485	-0.0211587734520435	
43	35.8958129093718	0.473358154296875	4.19999998939602	0.00122069846838713	
44	35.9958129091193	0.4737548828125	4.29999998914354	0.00961300078779459	
45	36.0958129088668	0.473724365234375	4.39999998889107	-0.0057983179576695	
46	36.1958129086144	0.472320556640625	4.49999998863859	-0.0240579321980476	
47	36.2958129083619	0.472747802734375	4.59999998838612	0.0241087954491377	
48	36.3958129081094	0.472900390625	4.69999998813364	-0.00686642900109291	
49	36.4958129078569	0.473785400390625	4.79999998788116	0.0158690810203552	
50	36.5958129076045	0.47332763671875	4.89999998762869	-0.0182087514549494	
51	36.695812907352	0.4739990234375	4.99999998737621	0.0205992870032787	
52	36.7958129070995	0.473358154296875	5.09999998712374	-0.0211079102009535	
53	36.895812906847	0.471160888671875	5.19999998687126	-0.0305683240294456	
54	36.9958129065946	0.472930908203125	5.29999998661879	0.0559486784040928	
55	37.0958129063421	0.472198486328125	5.39999998636631	-0.0414020232856274	
56	37.1958129060896	0.472808837890625	5.49999998611383	0.0256346687674522	
57	37.2958129058371	0.472747802734375	5.59999998586136	-0.0106811113655567	
58	37.3958129055846	0.474517822265625	5.69999998560888	0.0351968072354794	
59	37.4958129053322	0.474456787109375	5.79999998535641	-0.0219725724309683	
60	37.5958129050797	0.473846435546875	5.89999998510393	-0.00457761948928237	
61	37.6958129048272	0.4735107421875	5.99999998485146	0.000762936542741954	
62	37.7958129045747	0.472412109375	6.09999998459898	-0.0182596147060394	
63	37.8958129043223	0.47174072265625	6.1999999843465	-0.000610349234193563	
64	37.9958129040698	0.47308349609375	6.29999998409403	0.0287881381809711	
65	38.0958129038173	0.473480224609375	6.39999998384155	-0.0106302490457892	
66	38.1958129035648	0.473846435546875	6.49999998358908	0.00656125415116549	
67	38.2958129033124	0.474609375	6.5999999833366	0.0110371485352516	
68	38.3958129030599	0.474365234375	6.69999998308413	-0.0121561223641038	
69	38.4958129028074	0.474029541015625	6.79999998283165	-0.000762936542741954	
70	38.5958129025549	0.47271728515625	6.89999998257917	-0.0209553241729736	
71	38.6958129023025	0.472808837890625	6.9999999823267	0.0158690810203552	
72	38.79581290205	0.472381591796875	7.09999998207422	-0.013275096192956	
73	38.8958129017975	0.473907470703125	7.19999998182175	0.0332640334963799	
74	38.995812901545	0.47381591796875	7.29999998156927	-0.0209044609218836	
75	39.0958129012926	0.47320556640625	7.3999999813168	-0.00503538129851222	
76	39.1958129010401	0.47344970703125	7.49999998106432	0.0112914610654116	
77	39.2958129007876	0.47259521484375	7.59999998081184	-0.0205484237521887	
78	39.3958129005351	0.471588134765625	7.69999998055937	-0.00768022798001766	
79	39.4958129002827	0.4718017578125	7.79999998030689	0.0128173343837261	
80	39.5958129000302	0.470947265625	7.89999998005442	-0.0215148106217384	
81	39.6958128997777	0.471527099609375	7.99999997980194	0.0213113613426685	
82	39.7958128995252	0.473236083984375	8.09999997954947	0.0217182599008083	
83	39.8958128992728	0.47265625	8.19999997929699	-0.0286355521529913	
84	39.9958128990203	0.47344970703125	8.29999997904451	0.0270079541951418	
85	40.0958128987678	0.473297119140625	8.39999997879204	-0.0139871696010232	
86	40.1958128985153	0.473846435546875	8.49999997853956	0.0144957946613431	
87	40.2958128982629	0.473236083984375	8.59999997828709	-0.0181070268154144	
88	40.3958128980104	0.473419189453125	8.69999997803461	0.0123087093234062	
89	40.4958128977579	0.472320556640625	8.79999997778214	-0.0243122447282076	
90	40.5958128975054	0.4730224609375	8.89999997752966	0.026295879855752	
91	40.6958128972529	0.4732666015625	8.99999997727718	-0.00737505313009024	
92	40.7958128970005	0.473297119140625	9.09999997702471	5.0862436182797E-05	
93	40.895812896748	0.471527099609375	9.19999997677223	-0.0319924727082253	
94	40.9958128964955	0.4725341796875	9.29999997651976	0.0392149388790131	
95	41.095812896243	0.47216796875	9.39999997626728	-0.0243631061166525	
96	41.1958128959906	0.472991943359375	9.49999997601481	0.022735508158803	
97	41.2958128957381	0.471832275390625	9.59999997576233	-0.0320941954851151	
98	41.3958128954856	0.472198486328125	9.69999997550985	0.0229898206889629	
99	41.4958128952331	0.474029541015625	9.79999997525738	0.0254312176257372	
100	41.5958128949807	0.473724365234375	9.8999999750049	-0.0257363934069872	
101	41.6958128947282	0.474456787109375	9.99999997475243	0.0230915453284979	
102	41.7958128944757	0.474700927734375	10.0999999745	-0.0050862436182797	
103	41.8958128942232	0.473663330078125	10.1999999742475	-0.0194294508546591	
104	41.9958128939708	0.473968505859375	10.299999973995	0.0185139272361994	
105	42.0958128937183	0.47265625	10.3999999737425	-0.0310769490897655	
106	42.1958128934658	0.47369384765625	10.49999997349	0.0353493914008141	
107	42.2958128932133	0.473907470703125	10.5999999732376	-0.0125630218535662	
108	42.3958128929609	0.473297119140625	10.6999999729851	-0.0102233495563269	
109	42.4958128927084	0.473846435546875	10.7999999727326	0.0179035775363445	
110	42.5958128924559	0.47406005859375	10.8999999724801	-0.00452675670385361	
111	42.6958128922034	0.4730224609375	10.9999999722277	-0.019683763384819	
112	42.795812891951	0.472564697265625	11.0999999719752	0.00442503206431866	
113	42.8958128916985	0.47235107421875	11.1999999717227	-0.00203449744731188	
114	42.995812891446	0.472564697265625	11.2999999714702	0.00488279387354851	
115	43.0958128911935	0.47344970703125	11.3999999712178	0.013020783662796	
116	43.1958128909411	0.473907470703125	11.4999999709653	-0.00122069846838713	
117	43.2958128906886	0.473785400390625	11.5999999707128	-0.00462848180904984	
118	43.3958128904361	0.473968505859375	11.6999999704603	0.00630694208666682	
119	43.4958128901836	0.474334716796875	11.7999999702079	0.00417071999981999	
120	43.5958128899312	0.4732666015625	11.8999999699554	-0.0232441332191229	
121	43.6958128896787	0.472076416015625	11.9999999697029	-0.00813798978924751	
122	43.7958128894262	0.472930908203125	12.0999999694504	0.025990704074502	
123	43.8958128891737	0.471923828125	12.199999969198	-0.0323993712663651	
124	43.9958128889213	0.4725341796875	12.2999999689455	0.0257872547954321	
125	44.0958128886688	0.4720458984375	12.399999968693	-0.0194294508546591	
126	44.1958128884163	0.471954345703125	12.4999999684405	0.00605263002216816	
127	44.2958128881638	0.47210693359375	12.5999999681881	0.00223794719204307	
128	44.3958128879113	0.47119140625	12.6999999679356	-0.0188699644058943	
129	44.4958128876589	0.47125244140625	12.7999999676831	0.0123087093234062	
130	44.5958128874064	0.472442626953125	12.8999999674306	0.0180561654269695	
131	44.6958128871539	0.4732666015625	12.9999999671782	0.00142414821311831	
132	44.7958128869014	0.47259521484375	13.0999999669257	-0.0179544407874346	
133	44.895812886649	0.472320556640625	13.1999999666732	0.00554400542750955	
134	44.9958128863965	0.4727783203125	13.2999999664207	0.00935868825763464	
135	45.095812886144	0.472442626953125	13.3999999661683	-0.0124104348942637	
136	45.1958128858915	0.47222900390625	13.4999999659158	0.00152587308548391	
137	45.2958128856391	0.472747802734375	13.5999999656633	0.0108845615759492	
138	45.3958128853866	0.473724365234375	13.6999999654108	0.0111388731747866	
139	45.4958128851341	0.47528076171875	13.7999999651583	0.0188699644058943	
140	45.5958128848816	0.474609375	13.8999999649059	-0.0272114034742117	
141	45.6958128846292	0.473297119140625	13.9999999646534	-0.0110371485352516	
142	45.7958128843767	0.474090576171875	14.0999999644009	0.0276183020323515	
143	45.8958128841242	0.473907470703125	14.1999999641484	-0.0169880539178848	
144	45.9958128838717	0.4742431640625	14.299999963896	0.0109354238957167	
145	46.0958128836193	0.473876953125	14.3999999636435	-0.0112405987456441	
146	46.1958128833668	0.473785400390625	14.499999963391	0.0037129579577595	
147	46.2958128831143	0.475830078125	14.5999999631385	0.0373330265283585	
148	46.3958128828618	0.47637939453125	14.6999999628861	-0.0140888951718807	
149	46.4958128826094	0.475433349609375	14.7999999626336	-0.0169371906667948	
150	46.5958128823569	0.474456787109375	14.8999999623811	-0.00503538129851222	
151	46.6958128821044	0.473907470703125	14.9999999621286	-0.00183104770258069	
152	46.7958128818519	0.473724365234375	15.0999999618762	-0.000203449744731188	
153	46.8958128815995	0.474273681640625	15.1999999616237	0.0103759374469519	
154	46.995812881347	0.4755859375	15.2999999613712	0.0170389153063297	
155	47.0958128810945	0.47479248046875	15.3999999611187	-0.0280252024531364	
156	47.195812880842	0.475982666015625	15.4999999608663	0.0354511179029942	
157	47.2958128805896	0.475616455078125	15.5999999606138	-0.0232441332191229	
158	47.3958128803371	0.475738525390625	15.6999999603613	0.0104776620864868	
159	47.4958128800846	0.475128173828125	15.7999999601088	-0.0138345826417208	
160	47.5958128798321	0.474822998046875	15.8999999598564	0.00193277257494628	
161	47.6958128795796	0.474884033203125	15.9999999596039	0.00264484668150544	
162	47.7958128793272	0.474456787109375	16.0999999593514	-0.00956213846802711	
163	47.8958128790747	0.474365234375	16.1999999590989	0.00350950821302831	
164	47.9958128788222	0.47430419921875	16.2999999588465	-0.00147501064930111	
165	48.0958128785697	0.474273681640625	16.399999958594	-0.000152587308548391	
166	48.1958128783173	0.47314453125	16.4999999583415	-0.0205484237521887	
167	48.2958128780648	0.473297119140625	16.599999958089	0.0158690810203552	
168	48.3958128778123	0.47296142578125	16.6999999578366	-0.0116983605548739	
169	48.4958128775598	0.47412109375	16.7999999575841	0.0256855301558971	
170	48.5958128773074	0.472503662109375	16.8999999573316	-0.0443011820316315	
171	48.6958128770549	0.474090576171875	16.9999999570791	0.0518288239836693	
172	48.7958128768024	0.474761962890625	17.0999999568267	-0.011596635915339	
173	48.8958128765499	0.47369384765625	17.1999999565742	-0.0221251603215933	
174	48.9958128762975	0.472686767578125	17.2999999563217	-0.00376382027752697	
175	49.095812876045	0.473480224609375	17.3999999560692	0.022735508158803	
176	49.1958128757925	0.47320556640625	17.4999999558167	-0.0176492650061846	
177	49.29581287554	0.47283935546875	17.5999999555643	-0.000864661415107548	
178	49.3958128752876	0.47265625	17.6999999553118	0	
179	49.4958128750351	0.472564697265625	17.7999999550593	-0.000762936542741954	
180	49.5958128747826	0.47271728515625	17.8999999548068	0.00325519591569901	
181	49.6958128745301	0.473907470703125	17.9999999545544	0.0197346247732639	
182	49.7958128742777	0.4716796875	18.0999999543019	-0.0542193576693535	
183	49.8958128740252	0.470947265625	18.1999999540494	0.016530292108655	
184	49.9958128737727	0.4697265625	18.2999999537969	-0.0212604980915785	
185	50.0958128735202	0.469757080078125	18.3999999535445	0.0123595716431737	
186	50.1958128732678	0.470611572265625	18.499999953292	0.0112405987456441	
187	50.2958128730153	0.47064208984375	18.5999999530395	-0.00930782593786716	
188	50.3958128727628	0.4705810546875	18.699999952787	0.00137328577693552	
189	50.4958128725103	0.4718017578125	18.7999999525346	0.023193271830678	
190	50.5958128722579	0.4720458984375	18.8999999522821	-0.00996903795748949	
191	50.6958128720054	0.47113037109375	18.9999999520296	-0.0155639052391052	
192	50.7958128717529	0.471527099609375	19.0999999517771	0.0187682397663593	
193	50.8958128715004	0.471771240234375	19.1999999515247	-0.00320433359593153	
194	50.9958128712479	0.472076416015625	19.2999999512722	0.00406899489462376	
195	51.0958128709955	0.47198486328125	19.3999999510197	-0.00442503206431866	
196	51.195812870743	0.47265625	19.4999999507672	0.0143940690904856	
197	51.2958128704905	0.4735107421875	19.5999999505148	0.00752764055505395	
198	51.395812870238	0.473602294921875	19.6999999502623	-0.00605263002216816	
199	51.4958128699856	0.47418212890625	19.7999999500098	0.0124104348942637	
200	51.5958128697331	0.47454833984375	19.8999999497573	0.000254312180913985	
201	51.6958128694806	0.47381591796875	19.9999999495049	-0.0157673545181751	
202	51.7958128692281	0.471832275390625	20.0999999492524	-0.0266010537743568	
203	51.8958128689757	0.47357177734375	20.1999999489999	0.052591759711504	
204	51.9958128687232	0.474609375	20.2999999487474	-0.00788367725908756	
205	52.0958128684707	0.473724365234375	20.399999948495	-0.0225320588797331	
206	52.1958128682182	0.474334716796875	20.4999999482425	0.0249734558165073	
207	52.2958128679658	0.47479248046875	20.59999994799	-0.0016784603940323	
208	52.3958128677133	0.47607421875	20.6999999477375	0.0201923865824938	
209	52.4958128674608	0.475341796875	20.799999947485	-0.0268553663045168	
210	52.5958128672083	0.47607421875	20.8999999472326	0.0262450166046619	
211	52.6958128669559	0.47589111328125	20.9999999469801	-0.0143432067707181	
212	52.7958128667034	0.47589111328125	21.0999999467276	0.00457761948928237	
213	52.8958128664509	0.475799560546875	21.1999999464751	-0.00228880974464118	
214	52.9958128661984	0.475006103515625	21.2999999462227	-0.0134785454720259	
215	53.095812865946	0.475494384765625	21.3999999459702	0.0179035775363445	
216	53.1958128656935	0.47509765625	21.4999999457177	-0.0156147675588727	
217	53.295812865441	0.475189208984375	21.5999999454652	0.00793454051017761	
218	53.3958128651885	0.475433349609375	21.6999999452128	0.00208535999991	
219	53.4958128649361	0.475555419921875	21.7999999449603	-0.000305174617096782	
220	53.5958128646836	0.4754638671875	21.8999999447078	-0.00228880974464118	
221	53.6958128644311	0.474761962890625	21.9999999444553	-0.0113931857049465	
222	53.7958128641786	0.474639892578125	22.0999999442029	0.00564573053270578	
223	53.8958128639262	0.475250244140625	22.1999999439504	0.0102742118760943	
224	53.9958128636737	0.47540283203125	22.2999999436979	-0.00473020644858479	
225	54.0958128634212	0.47601318359375	22.3999999434454	0.011444048024714	
226	54.1958128631687	0.476043701171875	22.499999943193	-0.00605263002216816	
227	54.2958128629163	0.4744873046875	22.5999999429405	-0.0268553663045168	
228	54.3958128626638	0.47479248046875	22.699999942688	0.0238544829189777	
229	54.4958128624113	0.474456787109375	22.7999999424355	-0.0149026941508055	
230	54.5958128621588	0.4739990234375	22.8999999421831	-0.00345864566043019	
231	54.6958128619063	0.47344970703125	22.9999999419306	-0.00584918027743697	
232	54.7958128616539	0.473480224609375	23.0999999416781	0.0054422807879746	
233	54.8958128614014	0.473876953125	23.1999999414256	0.0050862436182797	
234	54.9958128611489	0.47418212890625	23.2999999411732	0.00106811115983874	
235	55.0958128608964	0.47454833984375	23.3999999409207	0.00447589438408613	
236	55.195812860644	0.47430419921875	23.4999999406682	-0.00773109029978514	
237	55.2958128603915	0.47357177734375	23.5999999404157	-0.00935868825763464	
238	55.395812860139	0.473602294921875	23.6999999401633	0.00829057674854994	
239	55.4958128598865	0.47332763671875	23.7999999399108	-0.00783281493932009	
240	55.5958128596341	0.47296142578125	23.8999999396583	-0.00340778334066272	
241	55.6958128593816	0.472991943359375	23.9999999394058	0.00391640746966004	
242	55.7958128591291	0.473175048828125	24.0999999391533	0.00178018526639789	
243	55.8958128588766	0.4736328125	24.1999999389009	0.0063578044064343	
244	55.9958128586242	0.473297119140625	24.2999999386484	-0.0108845615759492	
245	56.0958128583717	0.473052978515625	24.3999999383959	0.000966386287473142	
246	56.1958128581192	0.472869873046875	24.4999999381434	-0.0016275979578495	
247	56.2958128578667	0.472930908203125	24.599999937891	0.00244139693677425	
248	56.3958128576143	0.473175048828125	24.6999999376385	0.00315347104333341	
249	56.4958128573618	0.472015380859375	24.799999937386	-0.0239053443074226	
250	56.5958128571093	0.4725341796875	24.8999999371335	0.0238544829189777	
251	56.6958128568568	0.47235107421875	24.9999999368811	-0.013275096192956	
252	56.7958128566044	0.472076416015625	25.0999999366286	-0.00116983603220433	
253	56.8958128563519	0.471527099609375	25.1999999363761	-0.00747677823528647	
254	56.9958128560994	0.47076416015625	25.2999999361236	-0.00849402695894241	
255	57.0958128558469	0.471954345703125	25.3999999358712	0.0288898646831512	
256	57.1958128555945	0.471466064453125	25.4999999356187	-0.0253803562372923	
257	57.295812855342	0.471527099609375	25.5999999353662	0.0107828369364142	
258	57.3958128550895	0.47119140625	25.6999999351137	-0.00849402695894241	
259	57.495812854837	0.472137451171875	25.7999999348613	0.0214639473706484	
260	57.5958128545846	0.472015380859375	25.8999999346088	-0.0143940690904856	
261	57.6958128543321	0.470947265625	25.9999999343563	-0.0150044187903404	
262	57.7958128540796	0.47161865234375	26.0999999341038	0.0243631061166525	
263	57.8958128538271	0.46954345703125	26.1999999338514	-0.0494382865726948	
264	57.9958128535746	0.470916748046875	26.2999999335989	0.0516253709793091	
265	58.0958128533222	0.470184326171875	26.3999999333464	-0.0363666415214539	
