Index	Time (s)	WE(1).Potential (V)	Corrected time (s)	dWE(1).Potential/dt (V/s)	OCP value (V)
1	31.5748679202811	0.281494140625	0	0	0.325206382601869
2	31.6748679200286	0.282989501953125	0.0999999997475243	0.0149535564705729	
3	31.7748679197762	0.285186767578125	0.199999999495049	0.0254820808768272	
4	31.8748679195237	0.28424072265625	0.299999999242573	-0.0379942394793034	
5	31.9748679192712	0.284881591796875	0.399999998990097	0.0301105622202158	
6	32.0748679190187	0.287139892578125	0.499999998737621	0.0307717733085155	
7	32.1748679187663	0.288116455078125	0.599999998485146	-0.00630694208666682	
8	32.2748679185138	0.2879638671875	0.69999999823267	-0.00666297925636172	
9	32.3748679182613	0.2889404296875	0.799999997980194	0.022938959300518	
10	32.4748679180088	0.28948974609375	0.899999997727718	-0.00183104770258069	
11	32.5748679177564	0.290618896484375	0.999999997475243	0.0175475403666496	
12	32.6748679175039	0.291534423828125	1.09999999722277	0.0054422807879746	
13	32.7748679172514	0.2913818359375	1.19999999697029	-0.00971472542732954	
14	32.8748679169989	0.291961669921875	1.29999999671782	0.0154621805995703	
15	32.9748679167465	0.2930908203125	1.39999999646534	0.0134276831522584	
16	33.074867916494	0.29290771484375	1.49999999621286	-0.014597519300878	
17	33.1748679162415	0.293975830078125	1.59999999596039	0.0254820808768272	
18	33.274867915989	0.293914794921875	1.69999999570791	-0.0141906198114157	
19	33.3748679157366	0.29486083984375	1.79999999545544	0.0216165352612734	
20	33.4748679154841	0.295013427734375	1.89999999520296	-0.00844316463917494	
21	33.5748679152316	0.294464111328125	1.99999999495049	-0.00869747623801231	
22	33.6748679149791	0.29571533203125	2.09999999469801	0.0298562496900558	
23	33.7748679147267	0.29559326171875	2.19999999444553	-0.0186665132641792	
24	33.8748679144742	0.296478271484375	2.29999999419306	0.0218199845403433	
25	33.9748679142217	0.295684814453125	2.39999999394058	-0.0252786315977573	
26	34.0748679139692	0.296356201171875	2.49999999368811	0.0245156940072775	
27	34.1748679137168	0.296844482421875	2.59999999343563	-0.00152587308548391	
28	34.2748679134643	0.29656982421875	2.69999999318316	-0.00849402695894241	
29	34.3748679132118	0.296661376953125	2.79999999293068	0.00651039183139801	
30	34.4748679129593	0.296722412109375	2.8999999926782	-0.000864661415107548	
31	34.5748679127068	0.297149658203125	2.99999999242573	0.007425915915519	
32	34.6748679124544	0.2978515625	3.09999999217325	0.00808712746948004	
33	34.7748679122019	0.298431396484375	3.19999999192078	0.00386554514989257	
34	34.8748679119494	0.29864501953125	3.2999999916683	-0.00050862436182797	
35	34.9748679116969	0.297149658203125	3.39999999141583	-0.0279743392020464	
36	35.0748679114445	0.297637939453125	3.49999999116335	0.0271096788346767	
37	35.174867911192	0.296661376953125	3.59999999091087	-0.0285846889019012	
38	35.2748679109395	0.29669189453125	3.6999999906584	0.0135802701115608	
39	35.374867910687	0.296875	3.79999999040592	-0.000254312180913985	
40	35.4748679104346	0.2978515625	3.89999999015345	0.0158690810203552	
41	35.5748679101821	0.298065185546875	3.99999998990097	-0.00686642900109291	
42	35.6748679099296	0.299468994140625	4.0999999896485	0.0264993291348219	
43	35.7748679096771	0.30010986328125	4.19999998939602	-0.00391640746966004	
44	35.8748679094247	0.300384521484375	4.29999998914354	0.00223794719204307	
45	35.9748679091722	0.300384521484375	4.39999998889107	-0.00106811115983874	
46	36.0748679089197	0.299163818359375	4.49999998863859	-0.0214639473706484	
47	36.1748679086672	0.299468994140625	4.59999998838612	0.0198363494127989	
48	36.2748679084148	0.30096435546875	4.69999998813364	0.019785488024354	
49	36.3748679081623	0.30059814453125	4.79999998788116	-0.0231424085795879	
50	36.4748679079098	0.30145263671875	4.89999998762869	0.0249225944280624	
51	36.5748679076573	0.3006591796875	4.99999998737621	-0.0257363934069872	
52	36.6748679074049	0.301177978515625	5.09999998712374	0.0216165352612734	
53	36.7748679071524	0.300201416015625	5.19999998687126	-0.0266010537743568	
54	36.8748679068999	0.30096435546875	5.29999998661879	0.0271096788346767	
55	36.9748679066474	0.3013916015625	5.39999998636631	-0.00432330695912242	
56	37.074867906395	0.302032470703125	5.49999998611383	0.00930782593786716	
57	37.1748679061425	0.301177978515625	5.59999998586136	-0.0217182599008083	
58	37.27486790589	0.302703857421875	5.69999998560888	0.0400796011090279	
59	37.3748679056375	0.303375244140625	5.79999998535641	-0.00834143999963999	
60	37.4748679053851	0.304351806640625	5.89999998510393	0.0151570057496428	
61	37.5748679051326	0.30487060546875	5.99999998485146	0.000356037053279579	
62	37.6748679048801	0.304290771484375	6.09999998459898	-0.0134276831522584	
63	37.7748679046276	0.30517578125	6.1999999843465	0.0247191432863474	
64	37.8748679043752	0.306365966796875	6.29999998409403	0.00956213846802711	
65	37.9748679041227	0.306793212890625	6.39999998384155	-0.00310260872356594	
66	38.0748679038702	0.30584716796875	6.49999998358908	-0.0183613393455744	
67	38.1748679036177	0.305389404296875	6.5999999833366	0.00406899489462376	
68	38.2748679033652	0.306182861328125	6.69999998308413	0.0167337413877249	
69	38.3748679031128	0.30609130859375	6.79999998283165	-0.0124612972140312	
70	38.4748679028603	0.306671142578125	6.89999998257917	0.0143432067707181	
71	38.5748679026078	0.30718994140625	6.9999999823267	0.00244139693677425	
72	38.6748679023553	0.307708740234375	7.09999998207422	0.00539141846820712	
73	38.7748679021029	0.307525634765625	7.19999998182175	-0.00768022798001766	
74	38.8748679018504	0.307525634765625	7.29999998156927	0.00386554514989257	
75	38.9748679015979	0.30865478515625	7.3999999813168	0.0200906619429588	
76	39.0748679013454	0.310028076171875	7.49999998106432	0.0120035354048014	
77	39.174867901093	0.309967041015625	7.59999998081184	-0.0133768208324909	
78	39.2748679008405	0.309906005859375	7.69999998055937	0.00417071999981999	
79	39.374867900588	0.310028076171875	7.79999998030689	0.00274657155387104	
80	39.4748679003355	0.310028076171875	7.89999998005442	-0.0016275979578495	
81	39.5748679000831	0.310455322265625	7.99999997980194	0.00823971442878246	
82	39.6748678998306	0.309112548828125	8.09999997954947	-0.0296019371598959	
83	39.7748678995781	0.31024169921875	8.19999997929699	0.0377907902002335	
84	39.8748678993256	0.30999755859375	8.29999997904451	-0.0221251603215933	
85	39.9748678990732	0.311492919921875	8.39999997879204	0.0340269692242146	
86	40.0748678988207	0.31036376953125	8.49999997853956	-0.038960624486208	
87	40.1748678985682	0.31146240234375	8.59999997828709	0.0382994152605534	
88	40.2748678983157	0.3114013671875	8.69999997803461	-0.0177001282572746	
89	40.3748678980633	0.30987548828125	8.79999997778214	-0.0236001703888178	
90	40.4748678978108	0.309478759765625	8.89999997752966	0.0103250741958618	
91	40.5748678975583	0.309234619140625	8.99999997727718	-0.00493365619331598	
92	40.6748678973058	0.308929443359375	9.09999997702471	-0.00406899489462376	
93	40.7748678970534	0.30914306640625	9.19999997677223	0.00666297925636172	
94	40.8748678968009	0.308135986328125	9.29999997651976	-0.0219725724309683	
95	40.9748678965484	0.30987548828125	9.39999997626728	0.0443520434200764	
96	41.0748678962959	0.3101806640625	9.49999997601481	-0.0180561654269695	
97	41.1748678960435	0.31048583984375	9.59999997576233	0.00783281493932009	
98	41.274867895791	0.311737060546875	9.69999997550985	0.0203958377242088	
99	41.3748678955385	0.310577392578125	9.79999997525738	-0.0348407700657845	
100	41.474867895286	0.310943603515625	9.8999999750049	0.0244139693677425	
101	41.5748678950335	0.310882568359375	9.99999997475243	-0.00925696361809969	
102	41.6748678947811	0.3111572265625	10.0999999745	0.00696815364062786	
103	41.7748678945286	0.31085205078125	10.1999999742475	-0.00900265108793974	
104	41.8748678942761	0.310638427734375	10.299999973995	0.000559486798010767	
105	41.9748678940236	0.311279296875	10.3999999737425	0.0132242338731885	
106	42.0748678937712	0.312042236328125	10.49999997349	0.0057983179576695	
107	42.1748678935187	0.3121337890625	10.5999999732376	-0.0050862436182797	
108	42.2748678932662	0.31182861328125	10.6999999729851	-0.00411985721439123	
109	42.3748678930137	0.310882568359375	10.7999999727326	-0.0134785454720259	
110	42.4748678927613	0.311492919921875	10.8999999724801	0.0212096367031336	
111	42.5748678925088	0.3121337890625	10.9999999722277	0.00147501064930111	
112	42.6748678922563	0.3116455078125	11.0999999719752	-0.0143940690904856	
113	42.7748678920038	0.3116455078125	11.1999999717227	0.00783281493932009	
114	42.8748678917514	0.310394287109375	11.2999999714702	-0.0245665572583675	
115	42.9748678914989	0.31036376953125	11.3999999712178	0.0140380328521132	
116	43.0748678912464	0.30938720703125	11.4999999709653	-0.0217182599008083	
117	43.1748678909939	0.31085205078125	11.5999999707128	0.0381468273699284	
118	43.2748678907415	0.3111572265625	11.6999999704603	-0.0147501062601805	
119	43.374867890489	0.3104248046875	11.7999999702079	-0.0121052600443363	
120	43.4748678902365	0.31103515625	11.8999999699554	0.0207518748939037	
121	43.574867889984	0.310577392578125	11.9999999697029	-0.0179544407874346	
122	43.6748678897316	0.308685302734375	12.0999999694504	-0.0273131281137466	
123	43.7748678894791	0.30999755859375	12.199999969198	0.0446063578128815	
124	43.8748678892266	0.3089599609375	12.2999999689455	-0.0406390875577927	
125	43.9748678889741	0.3092041015625	12.399999968693	0.0209553241729736	
126	44.0748678887217	0.30914306640625	12.4999999684405	-0.007425915915519	
127	44.1748678884692	0.30987548828125	12.5999999681881	0.0149535564705729	
128	44.2748678882167	0.309234619140625	12.6999999679356	-0.0204975623637438	
129	44.3748678879642	0.309112548828125	12.7999999676831	0.00768022798001766	
130	44.4748678877118	0.3114013671875	12.8999999674306	0.0412494353950024	
131	44.5748678874593	0.3116455078125	12.9999999671782	-0.022633783519268	
132	44.6748678872068	0.309600830078125	13.0999999669257	-0.0327045470476151	
133	44.7748678869543	0.30963134765625	13.1999999666732	0.0252277683466673	
134	44.8748678867018	0.308807373046875	13.2999999664207	-0.0222777463495731	
135	44.9748678864494	0.310028076171875	13.3999999661683	0.0320941954851151	
136	45.0748678861969	0.310150146484375	13.4999999659158	-0.0147501062601805	
137	45.1748678859444	0.309967041015625	13.5999999656633	-0.000712074106559157	
138	45.2748678856919	0.3094482421875	13.6999999654108	-0.00696815364062786	
139	45.3748678854395	0.31011962890625	13.7999999651583	0.0177509896457195	
140	45.474867885187	0.312286376953125	13.8999999649059	0.0301614254713058	
141	45.5748678849345	0.31103515625	13.9999999646534	-0.0459796413779259	
142	45.674867884682	0.311309814453125	14.0999999644009	0.0268553663045168	
143	45.7748678844296	0.31231689453125	14.1999999641484	0.0110880108550191	
144	45.8748678841771	0.311187744140625	14.299999963896	-0.0315347090363503	
145	45.9748678839246	0.313018798828125	14.3999999636435	0.0500994995236397	
146	46.0748678836721	0.3133544921875	14.499999963391	-0.0189716890454292	
147	46.1748678834197	0.31298828125	14.5999999631385	-0.00452675670385361	
148	46.2748678831672	0.312530517578125	14.6999999628861	-0.00300088385120034	
149	46.3748678829147	0.313140869140625	14.7999999626336	0.0153095936402678	
150	46.4748678826622	0.31475830078125	14.8999999623811	0.0210061855614185	
151	46.5748678824098	0.314453125	14.9999999621286	-0.0224303342401981	
152	46.6748678821573	0.3148193359375	15.0999999618762	0.0156656298786402	
153	46.7748678819048	0.314788818359375	15.1999999616237	-0.00584918027743697	
154	46.8748678816523	0.314849853515625	15.2999999613712	0.00269570923410356	
155	46.9748678813999	0.31475830078125	15.3999999611187	-0.00249225948937237	
156	47.0748678811474	0.314605712890625	15.4999999608663	-0.00152587308548391	
157	47.1748678808949	0.31451416015625	15.5999999606138	-0.000203449744731188	
158	47.2748678806424	0.31390380859375	15.6999999603613	-0.0106302490457892	
159	47.37486788039	0.31439208984375	15.7999999601088	0.0157673545181751	
160	47.4748678801375	0.315032958984375	15.8999999598564	0.00401813257485628	
161	47.574867879885	0.31591796875	15.9999999596039	0.0103759374469519	
162	47.6748678796325	0.31597900390625	16.0999999593514	-0.0070698787458241	
163	47.7748678793801	0.31634521484375	16.1999999590989	0.00895178876817226	
164	47.8748678791276	0.316070556640625	16.2999999588465	-0.00910437572747469	
165	47.9748678788751	0.314971923828125	16.399999958594	-0.0157164931297302	
166	48.0748678786226	0.3155517578125	16.4999999583415	0.0225320588797331	
167	48.1748678783702	0.315643310546875	16.599999958089	-0.00874833948910236	
168	48.2748678781177	0.314178466796875	16.6999999578366	-0.025990704074502	
169	48.3748678778652	0.31317138671875	16.7999999575841	-0.00106811115983874	
170	48.4748678776127	0.31341552734375	16.8999999573316	0.011342323385179	
171	48.5748678773602	0.3140869140625	16.9999999570791	0.00610349234193563	
172	48.6748678771078	0.31353759765625	17.0999999568267	-0.0170897785574198	
173	48.7748678768553	0.314971923828125	17.1999999565742	0.0349424928426743	
174	48.8748678766028	0.313507080078125	17.2999999563217	-0.0454201549291611	
175	48.9748678763503	0.31365966796875	17.3999999560692	0.0246682818979025	
176	49.0748678760979	0.312744140625	17.4999999558167	-0.0234475824981928	
177	49.1748678758454	0.314208984375	17.5999999555643	0.0380451008677483	
178	49.2748678755929	0.313629150390625	17.6999999553118	-0.0307717733085155	
179	49.3748678753404	0.31298828125	17.7999999550593	-0.000101724872365594	
180	49.474867875088	0.31231689453125	17.8999999548068	-0.00676470389589667	
181	49.5748678748355	0.313751220703125	17.9999999545544	0.0319924727082253	
182	49.674867874583	0.312591552734375	18.0999999543019	-0.0402321852743626	
183	49.7748678743305	0.313720703125	18.1999999540494	0.0390114895999432	
184	49.8748678740781	0.31304931640625	18.2999999537969	-0.0293476264923811	
185	49.9748678738256	0.313507080078125	18.3999999535445	0.0199889373034239	
186	50.0748678735731	0.313385009765625	18.499999953292	-0.00981645006686449	
187	50.1748678733206	0.315673828125	18.5999999530395	0.0449115298688412	
188	50.2748678730682	0.315399169921875	18.699999952787	-0.0321450605988503	
189	50.3748678728157	0.3133544921875	18.7999999525346	-0.0266519170254469	
190	50.4748678725632	0.3135986328125	18.8999999522821	0.0274148527532816	
191	50.5748678723107	0.31671142578125	18.9999999520296	0.0474037900567055	
192	50.6748678720583	0.314788818359375	19.0999999517771	-0.0707496479153633	
193	50.7748678718058	0.3148193359375	19.1999999515247	0.03336575999856	
194	50.8748678715533	0.3154296875	19.2999999512722	0.00442503206431866	
195	50.9748678713008	0.31622314453125	19.3999999510197	0.00752764055505395	
196	51.0748678710484	0.31402587890625	19.4999999507672	-0.0475055165588856	
197	51.1748678707959	0.316436767578125	19.5999999505148	0.0724789723753929	
198	51.2748678705434	0.31597900390625	19.6999999502623	-0.0438434183597565	
199	51.3748678702909	0.316558837890625	19.7999999500098	0.0240070708096027	
200	51.4748678700385	0.317657470703125	19.8999999497573	0.0118509475141764	
201	51.574867869786	0.31793212890625	19.9999999495049	-0.00584918027743697	
202	51.6748678695335	0.31878662109375	20.0999999492524	0.01612339168787	
203	51.774867869281	0.3189697265625	20.1999999489999	-0.00569659285247326	
204	51.8748678690285	0.318756103515625	20.2999999487474	-0.00320433359593153	
205	51.9748678687761	0.318206787109375	20.399999948495	-0.00696815364062786	
206	52.0748678685236	0.318695068359375	20.4999999482425	0.0146483816206455	
207	52.1748678682711	0.319366455078125	20.59999994799	0.00478106923401356	
208	52.2748678680186	0.3187255859375	20.6999999477375	-0.0179544407874346	
209	52.3748678677662	0.31903076171875	20.799999947485	0.0153095936402678	
210	52.4748678675137	0.3192138671875	20.8999999472326	-0.00233967206440866	
211	52.5748678672612	0.31768798828125	20.9999999469801	-0.0290933139622211	
212	52.6748678670087	0.319122314453125	21.0999999467276	0.0447080805897713	
213	52.7748678667563	0.318328857421875	21.1999999464751	-0.0363666415214539	
214	52.8748678665038	0.318359375	21.2999999462227	0.014597519300878	
215	52.9748678662513	0.31829833984375	21.3999999459702	-0.00411985721439123	
216	53.0748678659988	0.317047119140625	21.4999999457177	-0.0221251603215933	
217	53.1748678657464	0.317138671875	21.5999999454652	0.0160725302994251	
218	53.2748678654939	0.319061279296875	21.6999999452128	0.0300088375806808	
219	53.3748678652414	0.318145751953125	21.7999999449603	-0.0389097630977631	
220	53.4748678649889	0.314483642578125	21.8999999447078	-0.0500486381351948	
221	53.5748678647365	0.315216064453125	21.9999999444553	0.0531003847718239	
222	53.674867864484	0.31512451171875	22.0999999442029	-0.0224303342401981	
223	53.7748678642315	0.31488037109375	22.1999999439504	-0.000966386287473142	
224	53.874867863979	0.314239501953125	22.2999999436979	-0.00920610129833221	
225	53.9748678637266	0.316619873046875	22.3999999434454	0.0503029488027096	
226	54.0748678634741	0.31695556640625	22.499999943193	-0.0237527582794428	
227	54.1748678632216	0.318206787109375	22.5999999429405	0.0269570909440517	
228	54.2748678629691	0.319305419921875	22.699999942688	0.00666297925636172	
229	54.3748678627167	0.317779541015625	22.7999999424355	-0.036620955914259	
230	54.4748678624642	0.319244384765625	22.8999999421831	0.0483193136751652	
231	54.5748678622117	0.32122802734375	22.9999999419306	0.0141906198114157	
232	54.6748678619592	0.32080078125	23.0999999416781	-0.0260924305766821	
233	54.7748678617068	0.320526123046875	23.1999999414256	0.00656125415116549	
234	54.8748678614543	0.31927490234375	23.2999999411732	-0.0211587734520435	
235	54.9748678612018	0.318572998046875	23.3999999409207	0.000813798978924751	
236	55.0748678609493	0.3184814453125	23.4999999406682	0.00233967206440866	
237	55.1748678606968	0.3182373046875	23.5999999404157	-0.00574745517224073	
238	55.2748678604444	0.3173828125	23.6999999401633	-0.013122508302331	
239	55.3748678601919	0.316650390625	23.7999999399108	-0.00427244463935494	
240	55.4748678599394	0.316864013671875	23.8999999396583	0.00961300078779459	
241	55.5748678596869	0.315643310546875	23.9999999394058	-0.0273131281137466	
242	55.6748678594345	0.314910888671875	24.0999999391533	0.00152587308548391	
243	55.774867859182	0.315521240234375	24.1999999389009	0.0156656298786402	
244	55.8748678589295	0.313873291015625	24.2999999386484	-0.0397744253277779	
245	55.974867858677	0.314453125	24.3999999383959	0.0318907462060452	
246	56.0748678584246	0.31439208984375	24.4999999381434	-0.0133768208324909	
247	56.1748678581721	0.314300537109375	24.599999937891	0.000966386287473142	
248	56.2748678579196	0.315399169921875	24.6999999376385	0.0210061855614185	
249	56.3748678576671	0.316009521484375	24.799999937386	-0.00193277257494628	
250	56.4748678574147	0.317230224609375	24.8999999371335	0.0189208257943392	
251	56.5748678571622	0.3165283203125	24.9999999368811	-0.0250751804560423	
252	56.6748678569097	0.317596435546875	25.0999999366286	0.0318398848176003	
253	56.7748678566572	0.316986083984375	25.1999999363761	-0.025990704074502	
254	56.8748678564048	0.3172607421875	25.2999999361236	0.0157164931297302	
255	56.9748678561523	0.31744384765625	25.3999999358712	-0.00188191013876349	
256	57.0748678558998	0.31744384765625	25.4999999356187	-0.00122069846838713	
257	57.1748678556473	0.317535400390625	25.5999999353662	0.00228880974464118	
258	57.2748678553949	0.31689453125	25.6999999351137	-0.0128173343837261	
259	57.3748678551424	0.3160400390625	25.7999999348613	-0.00788367725908756	
260	57.4748678548899	0.316131591796875	25.8999999346088	0.00951127521693707	
261	57.5748678546374	0.3204345703125	25.9999999343563	0.0749712288379669	
262	57.674867854385	0.319000244140625	26.0999999341038	-0.0761919319629669	
263	57.7748678541325	0.318939208984375	26.1999999338514	0.0299579743295908	
264	57.87486785388	0.319915771484375	26.2999999335989	0.0138345826417208	
