Index	Time (s)	WE(1).Potential (V)	Corrected time (s)	dWE(1).Potential/dt (V/s)	OCP value (V)
1	31.3738629207886	0.362457275390625	0	0	0.384017345952053
2	31.4738629205361	0.362823486328125	0.0999999997475243	0.00366209540516138	
3	31.5738629202837	0.365753173828125	0.199999999495049	0.0421140976250172	
4	31.6738629200312	0.367095947265625	0.299999999242573	-0.00834143999963999	
5	31.7738629197787	0.3685302734375	0.399999998990097	0.0203958377242088	
6	31.8738629195262	0.37115478515625	0.499999998737621	0.035858016461134	
7	31.9738629192738	0.37176513671875	0.599999998485146	-0.0146483816206455	
8	32.0738629190213	0.37060546875	0.69999999823267	-0.019632900133729	
9	32.1738629187688	0.37109375	0.799999997980194	0.0245156940072775	
10	32.2738629185163	0.371917724609375	0.899999997727718	0.00554400542750955	
11	32.3738629182639	0.371612548828125	0.999999997475243	-0.0135802701115608	
12	32.4738629180114	0.3726806640625	1.09999999722277	0.025888979434967	
13	32.5738629177589	0.371246337890625	1.19999999697029	-0.0397744253277779	
14	32.6738629175064	0.3743896484375	1.29999999671782	0.0779212489724159	
15	32.773862917254	0.374420166015625	1.39999999646534	-0.0408933982253075	
16	32.8738629170015	0.371826171875	1.49999999621286	-0.0374347530305386	
17	32.973862916749	0.370391845703125	1.59999999596039	0.00406899489462376	
18	33.0738629164965	0.3721923828125	1.69999999570791	0.0410968475043774	
19	33.173862916244	0.371734619140625	1.79999999545544	-0.0341795571148396	
20	33.2738629159916	0.372314453125	1.89999999520296	0.0219725724309683	
21	33.3738629157391	0.374298095703125	1.99999999495049	0.0280760657042265	
22	33.4738629154866	0.373779296875	2.09999999469801	-0.0307209119200706	
23	33.5738629152341	0.374786376953125	2.19999999444553	0.0311278104782104	
24	33.6738629149817	0.373992919921875	2.29999999419306	-0.0280252024531364	
25	33.7738629147292	0.374267578125	2.39999999394058	0.0176492650061846	
26	33.8738629144767	0.372955322265625	2.49999999368811	-0.0299071129411459	
27	33.9738629142242	0.37396240234375	2.59999999343563	0.0346881821751595	
28	34.0738629139718	0.374664306640625	2.69999999318316	-0.00325519591569901	
29	34.1738629137193	0.374267578125	2.79999999293068	-0.0121052600443363	
30	34.2738629134668	0.376129150390625	2.8999999926782	0.0410968475043774	
31	34.3738629132143	0.3751220703125	2.99999999242573	-0.0415037497878075	
32	34.4738629129619	0.376922607421875	3.09999999217325	0.0509641617536545	
33	34.5738629127094	0.377227783203125	3.19999999192078	-0.0187682397663593	
34	34.6738629124569	0.377410888671875	3.2999999916683	0.0057983179576695	
35	34.7738629122044	0.378204345703125	3.39999999141583	0.0134276831522584	
36	34.873862911952	0.378143310546875	3.49999999116335	-0.00976558774709702	
37	34.9738629116995	0.3770751953125	3.59999999091087	-0.016225116327405	
38	35.073862911447	0.37713623046875	3.6999999906584	0.0133768208324909	
39	35.1738629111945	0.379791259765625	3.79999999040592	0.0444029085338116	
40	35.2738629109421	0.378143310546875	3.89999999015345	-0.0609840601682663	
41	35.3738629106896	0.378692626953125	3.99999998990097	0.0381468273699284	
42	35.4738629104371	0.379150390625	4.0999999896485	-0.00350950821302831	
43	35.5738629101846	0.377960205078125	4.19999998939602	-0.0253294929862022	
44	35.6738629099322	0.379608154296875	4.29999998914354	0.045623604208231	
45	35.7738629096797	0.378662109375	4.39999998889107	-0.0405373610556126	
46	35.8738629094272	0.37811279296875	4.49999998863859	0.00645952951163054	
47	35.9738629091747	0.37890625	4.59999998838612	0.0178018528968096	
48	36.0738629089223	0.378082275390625	4.69999998813364	-0.026194155216217	
49	36.1738629086698	0.379852294921875	4.79999998788116	0.0447080805897713	
50	36.2738629084173	0.38031005859375	4.89999998762869	-0.0150044187903404	
51	36.3738629081648	0.379608154296875	4.99999998737621	-0.0123087093234062	
52	36.4738629079123	0.380157470703125	5.09999998712374	0.019785488024354	
53	36.5738629076599	0.380523681640625	5.19999998687126	-0.00203449744731188	
54	36.6738629074074	0.381500244140625	5.29999998661879	0.0154621805995703	
55	36.7738629071549	0.380584716796875	5.39999998636631	-0.0269570909440517	
56	36.8738629069024	0.379547119140625	5.49999998611383	-0.0050862436182797	
57	36.97386290665	0.37908935546875	5.59999998586136	0.00066121167037636	
58	37.0738629063975	0.379913330078125	5.69999998560888	0.0169880539178848	
59	37.173862906145	0.37872314453125	5.79999998535641	-0.0329588577151299	
60	37.2738629058925	0.379852294921875	5.89999998510393	0.0373330265283585	
61	37.3738629056401	0.37677001953125	5.99999998485146	-0.0736488103866577	
62	37.4738629053876	0.378448486328125	6.09999998459898	0.0704953372478485	
63	37.5738629051351	0.37506103515625	6.1999999843465	-0.0919592827558517	
64	37.6738629048826	0.3775634765625	6.29999998409403	0.0909928977489471	
65	37.7738629046302	0.376861572265625	6.39999998384155	-0.0533546954393387	
66	37.8738629043777	0.3773193359375	6.49999998358908	0.0249225944280624	
67	37.9738629041252	0.3785400390625	6.5999999833366	0.014699243940413	
68	38.0738629038727	0.375091552734375	6.69999998308413	-0.0759376138448715	
69	38.1738629036203	0.375274658203125	6.79999998283165	0.0476581044495106	
70	38.2738629033678	0.375213623046875	6.89999998257917	-0.0147501062601805	
71	38.3738629031153	0.37396240234375	6.9999999823267	-0.0216165352612734	
72	38.4738629028628	0.37701416015625	7.09999998207422	0.0703427493572235	
73	38.5738629026104	0.375244140625	7.19999998182175	-0.0722246617078781	
74	38.6738629023579	0.3763427734375	7.29999998156927	0.0509641617536545	
75	38.7738629021054	0.377838134765625	7.3999999813168	0.00869747623801231	
76	38.8738629018529	0.377838134765625	7.49999998106432	-0.0137837203219533	
77	38.9738629016005	0.376373291015625	7.59999998081184	-0.0218708477914333	
78	39.073862901348	0.37725830078125	7.69999998055937	0.0333148948848248	
79	39.1738629010955	0.37786865234375	7.79999998030689	-0.00401813257485628	
80	39.273862900843	0.37774658203125	7.89999998005442	-0.00640866719186306	
81	39.3738629005906	0.380096435546875	7.99999997980194	0.0465391278266907	
82	39.4738629003381	0.378875732421875	8.09999997954947	-0.0502012260258198	
83	39.5738629000856	0.379119873046875	8.19999997929699	0.0265501923859119	
84	39.6738628998331	0.37811279296875	8.29999997904451	-0.0253803562372923	
85	39.7738628995806	0.380157470703125	8.39999997879204	0.0500486381351948	
86	39.8738628993282	0.3800048828125	8.49999997853956	-0.0300088375806808	
87	39.9738628990757	0.380462646484375	8.59999997828709	0.0169880539178848	
88	40.0738628988232	0.381256103515625	8.69999997803461	0.00869747623801231	
89	40.1738628985707	0.381866455078125	8.79999997778214	0.00345864566043019	
90	40.2738628983183	0.382080078125	8.89999997752966	-0.000559486798010767	
91	40.3738628980658	0.38043212890625	8.99999997727718	-0.0306700486689806	
92	40.4738628978133	0.38018798828125	9.09999997702471	0.0154621805995703	
93	40.5738628975608	0.382476806640625	9.19999997677223	0.0393166616559029	
94	40.6738628973084	0.381317138671875	9.29999997651976	-0.0487770773470402	
95	40.7738628970559	0.382110595703125	9.39999997626728	0.035705428570509	
96	40.8738628968034	0.3824462890625	9.49999997601481	-0.00696815364062786	
97	40.9738628965509	0.38348388671875	9.59999997576233	0.0177509896457195	
98	41.0738628962985	0.382476806640625	9.69999997550985	-0.029449351131916	
99	41.173862896046	0.383209228515625	9.79999997525738	0.0286355521529913	
100	41.2738628957935	0.38116455078125	9.8999999750049	-0.0493874251842499	
101	41.373862895541	0.3819580078125	9.99999997475243	0.0408425368368626	
102	41.4738628952886	0.380889892578125	10.0999999745	-0.0356545671820641	
103	41.5738628950361	0.381561279296875	10.1999999742475	0.0274148527532816	
104	41.6738628947836	0.380126953125	10.299999973995	-0.0376890636980534	
105	41.7738628945311	0.383819580078125	10.3999999737425	0.0866695940494537	
106	41.8738628942787	0.38189697265625	10.49999997349	-0.0831092223525047	
107	41.9738628940262	0.381500244140625	10.5999999732376	0.0274657160043716	
108	42.0738628937737	0.38201904296875	10.6999999729851	0.00773109029978514	
109	42.1738628935212	0.383636474609375	10.7999999727326	0.0222777463495731	
110	42.2738628932688	0.3828125	10.8999999724801	-0.0322467833757401	
111	42.3738628930163	0.381103515625	10.9999999722277	-0.0163268428295851	
112	42.4738628927638	0.3824462890625	11.0999999719752	0.0418089218437672	
113	42.5738628925113	0.3804931640625	11.1999999717227	-0.0571693778038025	
114	42.6738628922589	0.381317138671875	11.2999999714702	0.042368408292532	
115	42.7738628920064	0.380645751953125	11.3999999712178	-0.0284321010112762	
116	42.8738628917539	0.38238525390625	11.4999999709653	0.0424701347947121	
117	42.9738628915014	0.381439208984375	11.5999999707128	-0.039876151829958	
118	43.073862891249	0.380218505859375	11.6999999704603	-0.00554400542750955	
119	43.1738628909965	0.381500244140625	11.7999999702079	0.0345864556729794	
120	43.273862890744	0.381439208984375	11.8999999699554	-0.0201415251940489	
121	43.3738628904915	0.380218505859375	11.9999999697029	-0.0173949524760246	
122	43.473862890239	0.37762451171875	12.0999999694504	-0.0335183441638947	
123	43.5738628899866	0.38116455078125	12.199999969198	0.0910946205258369	
124	43.6738628897341	0.380401611328125	12.2999999689455	-0.0639340803027153	
125	43.7738628894816	0.380706787109375	12.399999968693	0.026295879855752	
126	43.8738628892291	0.38079833984375	12.4999999684405	-0.00442503206431866	
127	43.9738628889767	0.381500244140625	12.5999999681881	0.0128173343837261	
128	44.0738628887242	0.3797607421875	12.6999999679356	-0.0397744253277779	
129	44.1738628884717	0.380035400390625	12.7999999676831	0.0276691652834415	
130	44.2738628882192	0.3804931640625	12.8999999674306	-0.000610349234193563	
131	44.3738628879668	0.38134765625	12.9999999671782	0.0112405987456441	
132	44.4738628877143	0.38201904296875	13.0999999669257	0.00386554514989257	
133	44.5738628874618	0.381866455078125	13.1999999666732	-0.00778195261955261	
134	44.6738628872093	0.3809814453125	13.2999999664207	-0.0122069846838713	
135	44.7738628869569	0.38201904296875	13.3999999661683	0.0288390014320612	
136	44.8738628867044	0.382232666015625	13.4999999659158	-0.0111388731747866	
137	44.9738628864519	0.382232666015625	13.5999999656633	0.000966386287473142	
138	45.0738628861994	0.380279541015625	13.6999999654108	-0.0350950807332993	
139	45.173862885947	0.379364013671875	13.7999999651583	0.00600176770240068	
140	45.2738628856945	0.380859375	13.8999999649059	0.0315855741500854	
141	45.373862885442	0.3800048828125	13.9999999646534	-0.036163192242384	
142	45.4738628851895	0.37982177734375	14.0999999644009	0.011596635915339	
143	45.5738628849371	0.382232666015625	14.1999999641484	0.0434873811900616	
144	45.6738628846846	0.383087158203125	14.299999963896	-0.0130716459825635	
145	45.7738628844321	0.38104248046875	14.3999999636435	-0.039418388158083	
146	45.8738628841796	0.383331298828125	14.499999963391	0.0686642900109291	
147	45.9738628839272	0.381591796875	14.5999999631385	-0.0654090940952301	
148	46.0738628836747	0.3828125	14.6999999628861	0.0503029488027096	
149	46.1738628834222	0.38104248046875	14.7999999626336	-0.0524900332093239	
150	46.2738628831697	0.3804931640625	14.8999999623811	0.0146483816206455	
151	46.3738628829173	0.37994384765625	14.9999999621286	-0.00956213846802711	
152	46.4738628826648	0.380035400390625	15.0999999618762	0.00625607976689935	
153	46.5738628824123	0.3790283203125	15.1999999616237	-0.0213622227311134	
154	46.6738628821598	0.37957763671875	15.2999999613712	0.0221251603215933	
155	46.7738628819073	0.379638671875	15.3999999611187	-0.00864661391824484	
156	46.8738628816549	0.37738037109375	15.4999999608663	-0.0402830503880978	
157	46.9738628814024	0.377410888671875	15.5999999606138	0.0271096788346767	
158	47.0738628811499	0.378173828125	15.6999999603613	0.00610349234193563	
159	47.1738628808974	0.37835693359375	15.7999999601088	-0.0054422807879746	
160	47.273862880645	0.3775634765625	15.8999999598564	-0.0141397574916482	
161	47.3738628803925	0.376220703125	15.9999999596039	-0.0147501062601805	
162	47.47386288014	0.37835693359375	16.0999999593514	0.0521848611533642	
163	47.5738628798875	0.378662109375	16.1999999590989	-0.0238036196678877	
164	47.6738628796351	0.37841796875	16.2999999588465	-0.000915523851290345	
165	47.7738628793826	0.37860107421875	16.399999958594	0.00722246617078781	
166	47.8738628791301	0.37921142578125	16.4999999583415	0.00823971442878246	
167	47.9738628788776	0.377410888671875	16.599999958089	-0.0395201146602631	
168	48.0738628786252	0.37841796875	16.6999999578366	0.0415037497878075	
169	48.1738628783727	0.37872314453125	16.7999999575841	-0.0121561223641038	
170	48.2738628781202	0.37738037109375	16.8999999573316	-0.0248208697885275	
171	48.3738628778677	0.376861572265625	16.9999999570791	0.00717160338535905	
172	48.4738628776153	0.377838134765625	17.0999999568267	0.019480312243104	
173	48.5738628773628	0.376739501953125	17.1999999565742	-0.0332640334963799	
174	48.6738628771103	0.376434326171875	17.2999999563217	0.0104776620864868	
175	48.7738628768578	0.376739501953125	17.3999999560692	0.00549314310774207	
176	48.8738628766054	0.37652587890625	17.4999999558167	-0.00849402695894241	
177	48.9738628763529	0.377227783203125	17.5999999555643	0.01637770421803	
178	49.0738628761004	0.37786865234375	17.6999999553118	0.00284829642623663	
179	49.1738628758479	0.37786865234375	17.7999999550593	-0.00513710593804717	
180	49.2738628755955	0.3770751953125	17.8999999548068	-0.0124104348942637	
181	49.373862875343	0.376861572265625	17.9999999545544	0.00534055568277836	
182	49.4738628750905	0.3751220703125	18.0999999543019	-0.0320433340966702	
183	49.573862874838	0.37646484375	18.1999999540494	0.0441994555294514	
184	49.6738628745856	0.37908935546875	18.2999999537969	0.0266519170254469	
185	49.7738628743331	0.3798828125	18.3999999535445	-0.011596635915339	
186	49.8738628740806	0.379364013671875	18.499999953292	-0.010019900277257	
187	49.9738628738281	0.3779296875	18.5999999530395	-0.0175984036177397	
188	50.0738628735756	0.379638671875	18.699999952787	0.0463356785476208	
189	50.1738628733232	0.3780517578125	18.7999999525346	-0.0538124591112137	
190	50.2738628730707	0.37591552734375	18.8999999522821	-0.0149535564705729	
191	50.3738628728182	0.376739501953125	18.9999999520296	0.0347390435636044	
192	50.4738628725657	0.3779296875	19.0999999517771	0.0050862436182797	
193	50.5738628723133	0.378662109375	19.1999999515247	0.00228880974464118	
194	50.6738628720608	0.37774658203125	19.2999999512722	-0.0213622227311134	
195	50.7738628718083	0.378570556640625	19.3999999510197	0.0282286517322063	
196	50.8738628715558	0.3798828125	19.4999999507672	0.0113931857049465	
197	50.9738628713034	0.379425048828125	19.5999999505148	-0.0209553241729736	
198	51.0738628710509	0.37835693359375	19.6999999502623	-0.00986731238663197	
199	51.1738628707984	0.378448486328125	19.7999999500098	0.0126138841733336	
200	51.2738628705459	0.378814697265625	19.8999999497573	0.00208535999991	
201	51.3738628702935	0.380096435546875	19.9999999495049	0.019531175494194	
202	51.473862870041	0.3807373046875	20.0999999492524	-0.0019836351275444	
203	51.5738628697885	0.379150390625	20.1999999489999	-0.0322976484894753	
204	51.673862869536	0.379730224609375	20.2999999487474	0.0312803983688354	
205	51.7738628692836	0.3797607421875	20.399999948495	-0.0114949103444815	
206	51.8738628690311	0.382110595703125	20.4999999482425	0.0446572192013264	
207	51.9738628687786	0.38372802734375	20.59999994799	0.00233967206440866	
208	52.0738628685261	0.38372802734375	20.6999999477375	-0.0110371485352516	
209	52.1738628682737	0.383148193359375	20.799999947485	-0.00523883104324341	
210	52.2738628680212	0.3836669921875	20.8999999472326	0.016275979578495	
211	52.3738628677687	0.38372802734375	20.9999999469801	-0.00686642900109291	
212	52.4738628675162	0.3841552734375	21.0999999467276	0.00885006412863731	
213	52.5738628672638	0.382415771484375	21.1999999464751	-0.0366718173027039	
214	52.6738628670113	0.382293701171875	21.2999999462227	0.019480312243104	
215	52.7738628667588	0.3841552734375	21.3999999459702	0.0297545250505209	
216	52.8738628665063	0.385498046875	21.4999999457177	0.00249225948937237	
217	52.9738628662539	0.3843994140625	21.5999999454652	-0.0296019371598959	
218	53.0738628660014	0.384521484375	21.6999999452128	0.019531175494194	
219	53.1738628657489	0.383636474609375	21.7999999449603	-0.0213113613426685	
220	53.2738628654964	0.38360595703125	21.8999999447078	0.0101724872365594	
221	53.373862865244	0.38275146484375	21.9999999444553	-0.0182596147060394	
222	53.4738628649915	0.384429931640625	22.0999999442029	0.0406390875577927	
223	53.573862864739	0.384063720703125	22.1999999439504	-0.029144175350666	
224	53.6738628644865	0.386474609375	22.2999999436979	0.0540667697787285	
225	53.773862864234	0.386810302734375	22.3999999434454	-0.023193271830678	
226	53.8738628639816	0.3875732421875	22.499999943193	0.0181070268154144	
227	53.9738628637291	0.386932373046875	22.5999999429405	-0.019531175494194	
228	54.0738628634766	0.386962890625	22.699999942688	0.0105793867260218	
229	54.1738628632241	0.387054443359375	22.7999999424355	-0.000813798978924751	
230	54.2738628629717	0.385986328125	22.8999999421831	-0.0205484237521887	
231	54.3738628627192	0.385833740234375	22.9999999419306	0.00996903795748949	
232	54.4738628624667	0.385498046875	23.0999999416781	-0.00793454051017761	
233	54.5738628622142	0.38677978515625	23.1999999414256	0.0269062295556068	
234	54.6738628619618	0.387176513671875	23.2999999411732	-0.00879920180886984	
235	54.7738628617093	0.386383056640625	23.3999999409207	-0.0149026941508055	
236	54.8738628614568	0.386566162109375	23.4999999406682	0.0139363072812557	
237	54.9738628612043	0.384857177734375	23.5999999404157	-0.0361123308539391	
238	55.0738628609519	0.384185791015625	23.6999999401633	0.00823971442878246	
239	55.1738628606994	0.3858642578125	23.7999999399108	0.032907996326685	
240	55.2738628604469	0.38665771484375	23.8999999396583	-0.00727332849055529	
241	55.3738628601944	0.38739013671875	23.9999999394058	0.00976558774709702	
242	55.473862859942	0.3876953125	24.0999999391533	-0.000305174617096782	
243	55.5738628596895	0.3878173828125	24.1999999389009	0.00111897359602153	
244	55.673862859437	0.385894775390625	24.2999999386484	-0.0356545671820641	
245	55.7738628591845	0.38641357421875	24.3999999383959	0.0323485098779202	
246	55.8738628589321	0.385650634765625	24.4999999381434	-0.026448467746377	
247	55.9738628586796	0.385345458984375	24.599999937891	0.00503538129851222	
248	56.0738628584271	0.385955810546875	24.6999999376385	0.0122069846838713	
249	56.1738628581746	0.386688232421875	24.799999937386	0.00528969336301088	
250	56.2738628579222	0.385498046875	24.8999999371335	-0.0283303763717413	
251	56.3738628576697	0.385955810546875	24.9999999368811	0.0247191432863474	
252	56.4738628574172	0.3873291015625	25.0999999366286	0.0158690810203552	
253	56.5738628571647	0.385528564453125	25.1999999363761	-0.0475055165588856	
254	56.6738628569123	0.3851318359375	25.2999999361236	0.0183104779571295	
255	56.7738628566598	0.386138916015625	25.3999999358712	0.0170897785574198	
256	56.8738628564073	0.383880615234375	25.4999999356187	-0.0544736683368683	
257	56.9738628561548	0.386199951171875	25.5999999353662	0.0722246617078781	
258	57.0738628559023	0.385894775390625	25.6999999351137	-0.0401813238859177	
259	57.1738628556499	0.3873291015625	25.7999999348613	0.0375873409211636	
260	57.2738628553974	0.385467529296875	25.8999999346088	-0.0518796853721142	
261	57.3738628551449	0.3857421875	25.9999999343563	0.0315347090363503	
262	57.4738628548924	0.386688232421875	26.0999999341038	0.00793454051017761	
263	57.57386285464	0.385345458984375	26.1999999338514	-0.0347390435636044	
264	57.6738628543875	0.386383056640625	26.2999999335989	0.0378416515886784	
265	57.773862854135	0.38616943359375	26.3999999333464	-0.0204975623637438	
266	57.8738628538825	0.385345458984375	26.4999999330939	-0.00915523897856474	
