Index	Time (s)	WE(1).Potential (V)	Corrected time (s)	dWE(1).Potential/dt (V/s)	OCP value (V)
1	41.1610288960784	0.3477783203125	0	0	0.37699291752834
2	41.2610288958259	0.34783935546875	0.0999999997475243	0.000610360875725746	
3	41.3610288955734	0.352203369140625	0.199999999495049	0.0651560202240944	
4	41.461028895321	0.352020263671875	0.299999999242573	-0.0540678016841412	
5	41.5610288950685	0.35345458984375	0.399999998990097	0.0429795794188976	
6	41.661028894816	0.3543701171875	0.499999998737621	-0.000559497450012714	
7	41.7610288945635	0.35577392578125	0.599999998485146	0.0198367293924093	
8	41.8610288943111	0.35791015625	0.69999999823267	0.0258386097848415	
9	41.9610288940586	0.3609619140625	0.799999997980194	0.0357061102986336	
10	42.0610288938061	0.364501953125	0.899999997727718	0.0364181995391846	
11	42.1610288935536	0.36761474609375	0.999999997475243	0.0259403381496668	
12	42.2610288933012	0.36578369140625	1.09999999722277	-0.0580860115587711	
13	42.3610288930487	0.364288330078125	1.19999999697029	0.00432338938117027	
14	42.4610288927962	0.365203857421875	1.29999999671782	0.0281274635344744	
15	42.5610288925437	0.36810302734375	1.39999999646534	0.0374863296747208	
16	42.6610288922913	0.365509033203125	1.49999999621286	-0.0783296450972557	
17	42.7610288920388	0.36627197265625	1.59999999596039	0.0539152100682259	
18	42.8610288917863	0.36737060546875	1.69999999570791	0.00259403372183442	
19	42.9610288915338	0.368743896484375	1.79999999545544	0.0149029782041907	
20	43.0610288912814	0.36865234375	1.89999999520296	-0.0140383001416922	
21	43.1610288910289	0.370330810546875	1.99999999495049	0.0364181995391846	
22	43.2610288907764	0.3704833984375	2.09999999469801	-0.0170901045203209	
23	43.3610288905239	0.368377685546875	2.19999999444553	-0.0347905717790127	
24	43.4610288902715	0.365142822265625	2.29999999419306	-0.034231074154377	
25	43.561028890019	0.3697509765625	2.39999999394058	0.115205615758896	
26	43.6610288897665	0.3685302734375	2.49999999368811	-0.0869255587458611	
27	43.761028889514	0.37298583984375	2.59999999343563	0.111289136111736	
28	43.8610288892615	0.371612548828125	2.69999999318316	-0.0812288597226143	
29	43.9610288890091	0.3704833984375	2.79999999293068	0.0101726809516549	
30	44.0610288887566	0.37091064453125	2.8999999926782	0.0164288803935051	
31	44.1610288885041	0.37109375	2.99999999242573	-0.00539152091369033	
32	44.2610288882516	0.3724365234375	3.09999999217325	0.0239058006554842	
33	44.3610288879992	0.372161865234375	3.19999999192078	-0.0200910456478596	
34	44.4610288877467	0.37445068359375	3.2999999916683	0.0496426858007908	
35	44.5610288874942	0.373779296875	3.39999999141583	-0.0399277731776237	
36	44.6610288872417	0.370758056640625	3.49999999116335	-0.0399277731776237	
37	44.7610288869893	0.3734130859375	3.59999999091087	0.0816866308450699	
38	44.8610288867368	0.37109375	3.6999999906584	-0.0835685729980469	
39	44.9610288864843	0.369415283203125	3.79999999040592	0.00513720419257879	
40	45.0610288862318	0.367767333984375	3.89999999015345	-0.0183616895228624	
41	45.1610288859794	0.370452880859375	3.99999998990097	0.062867172062397	
42	45.2610288857269	0.368896484375	4.0999999896485	-0.0653594806790352	
43	45.3610288854744	0.369964599609375	4.19999998939602	0.046692606061697	
44	45.4610288852219	0.369171142578125	4.29999998914354	-0.0321965366601944	
45	45.5610288849695	0.369110107421875	4.39999998889107	0.0116985831409693	
46	45.661028884717	0.365692138671875	4.49999998863859	-0.064596526324749	
47	45.7610288844645	0.368133544921875	4.59999998838612	0.0844332575798035	
48	45.861028884212	0.37054443359375	4.69999998813364	0.00432338938117027	
49	45.9610288839596	0.3665771484375	4.79999998788116	-0.0927239879965782	
50	46.0610288837071	0.36798095703125	4.89999998762869	0.0800589993596077	
51	46.1610288834546	0.36944580078125	4.99999998737621	-0.00274662394076586	
52	46.2610288832021	0.36871337890625	5.09999998712374	-0.0258386097848415	
53	46.3610288829497	0.37042236328125	5.19999998687126	0.0447597987949848	
54	46.4610288826972	0.36700439453125	5.29999998661879	-0.0850436165928841	
55	46.5610288824447	0.364776611328125	5.39999998636631	0.00473029678687453	
56	46.6610288821922	0.3638916015625	5.49999998611383	-0.00162762904074043	
57	46.7610288819398	0.366790771484375	5.59999998586136	0.0560514740645885	
58	46.8610288816873	0.366180419921875	5.69999998560888	-0.0479641929268837	
59	46.9610288814348	0.368865966796875	5.79999998535641	0.066020704805851	
60	47.0610288811823	0.36932373046875	5.89999998510393	-0.0249739326536655	
61	47.1610288809298	0.37030029296875	5.99999998485146	0.0215152204036713	
62	47.2610288806774	0.368316650390625	6.09999998459898	-0.0462348349392414	
63	47.3610288804249	0.36431884765625	6.1999999843465	-0.0468960590660572	
64	47.4610288801724	0.362396240234375	6.29999998409403	0.00478116003796458	
65	47.5610288799199	0.365081787109375	6.39999998384155	0.0583403259515762	
66	47.6610288796675	0.3690185546875	6.49999998358908	0.0344345271587372	
67	47.761028879415	0.3721923828125	6.5999999833366	0.021210040897131	
68	47.8610288791625	0.37188720703125	6.69999998308413	-0.029500775039196	
69	47.96102887891	0.370849609375	6.79999998283165	-0.00488288700580597	
70	48.0610288786576	0.3702392578125	6.89999998257917	-0.000101726815046277	
71	48.1610288784051	0.37237548828125	6.9999999823267	0.0428269878029823	
72	48.2610288781526	0.369659423828125	7.09999998207422	-0.0767528787255287	
73	48.3610288779001	0.37091064453125	7.19999998182175	0.0617481768131256	
74	48.4610288776477	0.37115478515625	7.29999998156927	-0.0191755034029484	
75	48.5610288773952	0.371978759765625	7.3999999813168	0.0164288803935051	
76	48.6610288771427	0.369537353515625	7.49999998106432	-0.0535591654479504	
77	48.7610288768902	0.371368408203125	7.59999998081184	0.0647999793291092	
78	48.8610288766378	0.36767578125	7.69999998055937	-0.0971999689936638	
79	48.9610288763853	0.3704833984375	7.79999998030689	0.100658677518368	
80	49.0610288761328	0.370574951171875	7.89999998005442	-0.043386485427618	
81	49.1610288758803	0.37152099609375	7.99999997980194	0.0256351567804813	
82	49.2610288756279	0.371917724609375	8.09999997954947	-0.00345871155150235	
83	49.3610288753754	0.37017822265625	8.19999997929699	-0.0333663932979107	
84	49.4610288751229	0.37066650390625	8.29999997904451	0.0305689070373774	
85	49.5610288748704	0.373260498046875	8.39999997879204	0.0360621549189091	
86	49.661028874618	0.371246337890625	8.49999997853956	-0.0655629336833954	
87	49.7610288743655	0.3726806640625	8.59999997828709	0.0584420524537563	
88	49.861028874113	0.367584228515625	8.69999997803461	-0.116884104907513	
89	49.9610288738605	0.367767333984375	8.79999997778214	0.0675974637269974	
90	50.0610288736081	0.36737060546875	8.89999997752966	-0.0263981074094772	
91	50.1610288733556	0.37371826171875	8.99999997727718	0.121614404022694	
92	50.2610288731031	0.37530517578125	9.09999997702471	-0.0462857000529766	
93	50.3610288728506	0.36907958984375	9.19999997677223	-0.111492589116096	
94	50.4610288725981	0.367279052734375	9.29999997651976	0.0449123866856098	
95	50.5610288723457	0.3668212890625	9.39999997626728	-0.00813814532011747	
96	50.6610288720932	0.366973876953125	9.49999997601481	0.00213626306504011	
97	50.7610288718407	0.36688232421875	9.59999997576233	-0.00498461397364736	
98	50.8610288715882	0.367431640625	9.69999997550985	0.0116477198898792	
99	50.9610288713358	0.37030029296875	9.79999997525738	0.0458787940442562	
100	51.0610288710833	0.37237548828125	9.8999999750049	0.00640878919512033	
101	51.1610288708308	0.371673583984375	9.99999997475243	-0.0275171026587486	
102	51.2610288705783	0.371185302734375	10.0999999745	0.00615447200834751	
103	51.3610288703259	0.36883544921875	10.1999999742475	-0.0397243201732635	
104	51.4610288700734	0.371368408203125	10.299999973995	0.0722260400652885	
105	51.5610288698209	0.366729736328125	10.3999999737425	-0.122428216040134	
106	51.6610288695684	0.370758056640625	10.49999997349	0.136415660381317	
107	51.761028869316	0.370513916015625	10.5999999732376	-0.0669362396001816	
108	51.8610288690635	0.37445068359375	10.6999999729851	0.0884514600038528	
109	51.961028868811	0.371795654296875	10.7999999727326	-0.0954197496175766	
110	52.0610288685585	0.372802734375	10.8999999724801	0.0625619888305664	
111	52.1610288683061	0.371978759765625	10.9999999722277	-0.0357061102986336	
112	52.2610288680536	0.370635986328125	11.0999999719752	-0.0116477198898792	
113	52.3610288678011	0.36968994140625	11.1999999717227	-0.00442511634901166	
114	52.4610288675486	0.37054443359375	11.2999999714702	0.0222273077815771	
115	52.5610288672962	0.37506103515625	11.3999999712178	0.0696828663349152	
116	52.6610288670437	0.373291015625	11.4999999709653	-0.0822969898581505	
117	52.7610288667912	0.372100830078125	11.5999999707128	0.013885710388422	
118	52.8610288665387	0.373687744140625	11.6999999704603	0.0370794236660004	
119	52.9610288662863	0.37176513671875	11.7999999702079	-0.0577299669384956	
120	53.0610288660338	0.36883544921875	11.8999999699554	-0.0259912014007568	
121	53.1610288657813	0.37200927734375	11.9999999697029	0.0859591588377953	
122	53.2610288655288	0.37396240234375	12.0999999694504	-0.0109864957630634	
123	53.3610288652764	0.374664306640625	12.199999969198	0.000661224301438779	
124	53.4610288650239	0.373291015625	12.2999999689455	-0.0268558785319328	
125	53.5610288647714	0.37127685546875	12.399999968693	-0.0185651425272226	
126	53.6610288645189	0.370849609375	12.4999999684405	0.0110882222652435	
127	53.7610288642665	0.372344970703125	12.5999999681881	0.0256860200315714	
128	53.861028864014	0.374298095703125	12.6999999679356	0.0169375147670507	
129	53.9610288637615	0.371917724609375	12.7999999676831	-0.061442993581295	
130	54.061028863509	0.373077392578125	12.8999999674306	0.055542841553688	
131	54.1610288632565	0.375946044921875	12.9999999671782	0.0311284046620131	
132	54.2610288630041	0.373260498046875	13.0999999669257	-0.0788382813334465	
133	54.3610288627516	0.37139892578125	13.1999999666732	0.00676483288407326	
134	54.4610288624991	0.372406005859375	13.2999999664207	0.0312301311641932	
135	54.5610288622466	0.375732421875	13.3999999661683	0.0430304408073425	
136	54.6610288619942	0.376983642578125	13.4999999659158	-0.0125123979523778	
137	54.7610288617417	0.375213623046875	13.5999999656633	-0.035960428416729	
138	54.8610288614892	0.375213623046875	13.6999999654108	0.0248213429003954	
139	54.9610288612367	0.376983642578125	13.7999999651583	0.0265506990253925	
140	55.0610288609843	0.376220703125	13.8999999649059	-0.0346379801630974	
141	55.1610288607318	0.375823974609375	13.9999999646534	0.00752778397873044	
142	55.2610288604793	0.375030517578125	14.0999999644009	-0.0124615347012877	
143	55.3610288602268	0.376434326171875	14.1999999641484	0.0336715765297413	
144	55.4610288599744	0.37322998046875	14.299999963896	-0.0777701511979103	
145	55.5610288597219	0.370635986328125	14.3999999636435	-0.00549324788153172	
146	55.6610288594694	0.372772216796875	14.499999963391	0.0587472356855869	
147	55.7610288592169	0.373321533203125	14.5999999631385	-0.0234988946467638	
148	55.8610288589645	0.375030517578125	14.6999999628861	0.0320439450442791	
149	55.961028858712	0.376983642578125	14.7999999626336	0.0177004653960466	
150	56.0610288584595	0.373504638671875	14.8999999623811	-0.0808728188276291	
151	56.161028858207	0.375152587890625	14.9999999621286	0.0773123800754547	
152	56.2610288579546	0.3779296875	15.0999999618762	0.0200910456478596	
153	56.3610288577021	0.371856689453125	15.1999999616237	-0.13824674487114	
154	56.4610288574496	0.371978759765625	15.2999999613712	0.0823478549718857	
155	56.5610288571971	0.376068115234375	15.3999999611187	0.0533048510551453	
156	56.6610288569447	0.373291015625	15.4999999608663	-0.0982172340154648	
157	56.7610288566922	0.37298583984375	15.5999999606138	0.0404364094138145	
158	56.8610288564397	0.37225341796875	15.6999999603613	-0.0191246401518583	
159	56.9610288561872	0.37176513671875	15.7999999601088	-0.0014241753378883	
160	57.0610288559348	0.37078857421875	15.8999999598564	-0.0146486610174179	
161	57.1610288556823	0.3729248046875	15.9999999596039	0.0489305965602398	
162	57.2610288554298	0.3692626953125	16.0999999593514	-0.0953180268406868	
163	57.3610288551773	0.368133544921875	16.1999999590989	0.0291447322815657	
164	57.4610288549248	0.3712158203125	16.2999999588465	0.0574756488204002	
165	57.5610288546724	0.3714599609375	16.399999958594	-0.035248339176178	
166	57.6610288544199	0.373260498046875	16.4999999583415	0.0404364094138145	
167	57.7610288541674	0.37091064453125	16.599999958089	-0.0632740780711174	
168	57.8610288539149	0.3719482421875	16.6999999578366	0.052440170198679	
169	57.9610288536625	0.370849609375	16.7999999575841	-0.040080364793539	
170	58.06102885341	0.371917724609375	16.8999999573316	0.0358587019145489	
171	58.1610288531575	0.36981201171875	16.9999999570791	-0.054729025810957	
172	58.261028852905	0.3660888671875	17.0999999568267	-0.0401312261819839	
173	58.3610288526526	0.3704833984375	17.1999999565742	0.116985835134983	
174	58.4610288524001	0.37353515625	17.2999999563217	-0.00773123791441321	
175	58.5610288521476	0.371978759765625	17.3999999560692	-0.0494900941848755	
176	58.6610288518951	0.374298095703125	17.4999999558167	0.0708527266979218	
177	58.7610288516427	0.371185302734375	17.5999999555643	-0.0893161445856094	
178	58.8610288513902	0.3721923828125	17.6999999553118	0.0625111237168312	
179	58.9610288511377	0.373046875	17.7999999550593	-0.00645965244621038	
180	59.0610288508852	0.36956787109375	17.8999999548068	-0.0703949555754662	
181	59.1610288506328	0.371307373046875	17.9999999545544	0.0753287076950073	
182	59.2610288503803	0.3731689453125	18.0999999543019	0.00223798980005085	
183	59.3610288501278	0.370147705078125	18.1999999540494	-0.0713104978203773	
184	59.4610288498753	0.36865234375	18.2999999537969	0.0140383001416922	
185	59.5610288496229	0.3687744140625	18.3999999535445	0.00961318425834179	
186	59.6610288493704	0.37127685546875	18.499999953292	0.0394700020551682	
187	59.7610288491179	0.369232177734375	18.5999999530395	-0.0662750154733658	
188	59.8610288488654	0.369598388671875	18.699999952787	0.0389105044305325	
189	59.961028848613	0.36651611328125	18.7999999525346	-0.0675974637269974	
190	60.0610288483605	0.37078857421875	18.8999999522821	0.115510798990726	
191	60.161028848108	0.369140625	18.9999999520296	-0.0903334096074104	
192	60.2610288478555	0.369903564453125	19.0999999517771	0.0474555566906929	
193	60.3610288476031	0.3721923828125	19.1999999515247	0.0275679659098387	
194	60.4610288473506	0.3702392578125	19.2999999512722	-0.0599679574370384	
195	60.5610288470981	0.3720703125	19.3999999510197	0.0639861673116684	
196	60.6610288468456	0.3712158203125	19.4999999507672	-0.0435390770435333	
197	60.7610288465931	0.37017822265625	19.5999999505148	-0.00295007764361799	
198	60.8610288463407	0.37005615234375	19.6999999502623	0.00701915007084608	
199	60.9610288460882	0.370513916015625	19.7999999500098	0.00635792594403028	
200	61.0610288458357	0.37164306640625	19.8999999497573	0.0149538414552808	
201	61.1610288455832	0.36920166015625	19.9999999495049	-0.056407518684864	
202	61.2610288453308	0.368927001953125	20.0999999492524	0.0272119231522083	
203	61.3610288450783	0.370697021484375	20.1999999489999	0.0275171026587486	
204	61.4610288448258	0.369140625	20.2999999487474	-0.0501004569232464	
205	61.5610288445733	0.368682861328125	20.399999948495	0.0156659297645092	
206	61.6610288443209	0.369781494140625	20.4999999482425	0.0202944986522198	
207	61.7610288440684	0.3714599609375	20.59999994799	0.0164288803935051	
208	61.8610288438159	0.37445068359375	20.6999999477375	0.0389105044305325	
209	61.9610288435634	0.370635986328125	20.799999947485	-0.0992345064878464	
210	62.061028843311	0.3712158203125	20.8999999472326	0.0651051625609398	
211	62.1610288430585	0.36639404296875	20.9999999469801	-0.107881285250187	
212	62.261028842806	0.368865966796875	21.0999999467276	0.103507034480572	
213	62.3610288425535	0.37164306640625	21.1999999464751	0.00600188178941607	
214	62.4610288423011	0.37359619140625	21.2999999462227	0.0116477198898792	
215	62.5610288420486	0.3721923828125	21.3999999459702	-0.039266549050808	
216	62.6610288417961	0.3756103515625	21.4999999457177	0.0855522528290749	
217	62.7610288415436	0.37432861328125	21.5999999454652	-0.068055234849453	
218	62.8610288412912	0.3736572265625	21.6999999452128	0.0140383001416922	
219	62.9610288410387	0.372314453125	21.7999999449603	-0.0210574511438608	
220	63.0610288407862	0.37109375	21.8999999447078	-0.00895195920020342	
221	63.1610288405337	0.372772216796875	21.9999999444553	0.0405381359159946	
222	63.2610288402813	0.370819091796875	22.0999999442029	-0.0594593212008476	
223	63.3610288400288	0.374786376953125	22.1999999439504	0.101116448640823	
224	63.4610288397763	0.37353515625	22.2999999436979	-0.0757356137037277	
225	63.5610288395238	0.37518310546875	22.3999999434454	0.0580351464450359	
226	63.6610288392714	0.37713623046875	22.499999943193	0.0124106714501977	
227	63.7610288390189	0.37579345703125	22.5999999429405	-0.0419114455580711	
228	63.8610288387664	0.37457275390625	22.699999942688	-0.000203453630092554	
229	63.9610288385139	0.371612548828125	22.7999999424355	-0.0445054806768894	
230	64.0610288382614	0.373260498046875	22.8999999421831	0.0606800429522991	
231	64.161028838009	0.373138427734375	22.9999999419306	-0.0313318595290184	
232	64.2610288377565	0.37542724609375	23.0999999416781	0.0488797351717949	
233	64.361028837504	0.3775634765625	23.1999999414256	0.0120546277612448	
234	64.4610288372515	0.37762451171875	23.2999999411732	-0.0161745641380548	
235	64.5610288369991	0.37481689453125	23.3999999409207	-0.0450649783015251	
236	64.6610288367466	0.37701416015625	23.4999999406682	0.0732433050870895	
237	64.7610288364941	0.375091552734375	23.5999999404157	-0.0702423676848412	
238	64.8610288362416	0.37579345703125	23.6999999401633	0.0426235347986221	
239	64.9610288359892	0.374176025390625	23.7999999399108	-0.044251162558794	
240	65.0610288357367	0.3751220703125	23.8999999396583	0.0385544635355473	
241	65.1610288354842	0.377532958984375	23.9999999394058	0.027771420776844	
242	65.2610288352317	0.377655029296875	24.0999999391533	-0.0227359421551228	
243	65.3610288349793	0.373748779296875	24.1999999389009	-0.0650034323334694	
244	65.4610288347268	0.37567138671875	24.2999999386484	0.0812288597226143	
245	65.5610288344743	0.3748779296875	24.3999999383959	-0.049998726695776	
246	65.6610288342218	0.376251220703125	24.4999999381434	0.0408433154225349	
247	65.7610288339694	0.372528076171875	24.599999937891	-0.0869255587458611	
248	65.8610288337169	0.373809814453125	24.6999999376385	0.0715139508247375	
249	65.9610288334644	0.373199462890625	24.799999937386	-0.0385544635355473	
250	66.0610288332119	0.37066650390625	24.8999999371335	-0.0350448861718178	
251	66.1610288329595	0.373260498046875	24.9999999368811	0.0750743895769119	
252	66.261028832707	0.372955322265625	25.0999999366286	-0.0443020276725292	
253	66.3610288324545	0.370208740234375	25.1999999363761	-0.0381475538015366	
254	66.461028832202	0.371490478515625	25.2999999361236	0.0545255728065968	
255	66.5610288319496	0.37408447265625	25.3999999358712	0.0234480295330286	
256	66.6610288316971	0.373046875	25.4999999356187	-0.0450141131877899	
257	66.7610288314446	0.36798095703125	25.5999999353662	-0.0721243098378181	
258	66.8610288311921	0.370819091796875	25.6999999351137	0.107677832245827	
259	66.9610288309397	0.37005615234375	25.7999999348613	-0.0639861673116684	
260	67.0610288306872	0.36798095703125	25.8999999346088	-0.019684137776494	
261	67.1610288304347	0.36663818359375	25.9999999343563	-0.00295007764361799	
262	67.2610288301822	0.370147705078125	26.0999999341038	0.0730907171964645	
263	67.3610288299298	0.3685302734375	26.1999999338514	-0.0750743895769119	
264	67.4610288296773	0.369384765625	26.2999999335989	0.0462348349392414	
265	67.5610288294248	0.37139892578125	26.3999999333464	0.0215660836547613	
266	67.6610288291723	0.369903564453125	26.4999999330939	-0.0480659194290638	
