Index	Time (s)	WE(1).Potential (V)	Corrected time (s)	dWE(1).Potential/dt (V/s)	OCP value (V)
1	31.6858569200009	0.346466064453125	0	0	0.352590523514093
2	31.7858569197484	0.347320556640625	0.0999999997475243	0.00854488927870989	
3	31.885856919496	0.350341796875	0.199999999495049	0.0410459861159325	
4	31.9858569192435	0.351409912109375	0.299999999242573	-0.0128173343837261	
5	32.085856918991	0.349609375	0.399999998990097	-0.0354002565145493	
6	32.1858569187385	0.351226806640625	0.499999998737621	0.0542193576693535	
7	32.285856918486	0.348419189453125	0.599999998485146	-0.0763445198535919	
8	32.3858569182336	0.347747802734375	0.69999999823267	0.0258381180465221	
9	32.4858569179811	0.351593017578125	0.799999997980194	0.0689694657921791	
10	32.5858569177286	0.35009765625	0.899999997727718	-0.0745134726166725	
11	32.6858569174761	0.348175048828125	0.999999997475243	-0.00498451897874475	
12	32.7858569172237	0.350616455078125	1.09999999722277	0.062204759567976	
13	32.8858569169712	0.35028076171875	1.19999999697029	-0.0410459861159325	
14	32.9858569167187	0.349609375	1.29999999671782	-0.000254312180913985	
15	33.0858569164662	0.350372314453125	1.39999999646534	0.0207010116428137	
16	33.1858569162138	0.352081298828125	1.49999999621286	0.0201923865824938	
17	33.2858569159613	0.350067138671875	1.59999999596039	-0.0543210804462433	
18	33.3858569157088	0.353118896484375	1.69999999570791	0.0851437151432037	
19	33.4858569154563	0.352935791015625	1.79999999545544	-0.0456744693219662	
20	33.5858569152039	0.35296630859375	1.89999999520296	0.0128681967034936	
21	33.6858569149514	0.350372314453125	1.99999999495049	-0.0485227629542351	
22	33.7858569146989	0.3516845703125	2.09999999469801	0.0544228069484234	
23	33.8858569144464	0.351531982421875	2.19999999444553	-0.0267536416649818	
24	33.985856914194	0.35150146484375	2.29999999419306	0.00559486821293831	
25	34.0858569139415	0.357208251953125	2.39999999394058	0.104471445083618	
26	34.185856913689	0.356719970703125	2.49999999368811	-0.0756324455142021	
27	34.2858569134365	0.356109619140625	2.59999999343563	0.0135294077917933	
28	34.3858569131841	0.353546142578125	2.69999999318316	-0.0415037497878075	
29	34.4858569129316	0.3553466796875	2.79999999293068	0.0608823373913765	
30	34.5858569126791	0.3575439453125	2.8999999926782	0.0107319736853242	
31	34.6858569124266	0.35662841796875	2.99999999242573	-0.0364175029098988	
32	34.7858569121742	0.357269287109375	3.09999999217325	0.0297545250505209	
33	34.8858569119217	0.3599853515625	3.19999999192078	0.039265800267458	
34	34.9858569116692	0.35968017578125	3.2999999916683	-0.0351459421217442	
35	35.0858569114167	0.3577880859375	3.39999999141583	-0.0220742970705032	
36	35.1858569111643	0.35693359375	3.49999999116335	0.00539141846820712	
37	35.2858569109118	0.35369873046875	3.59999999091087	-0.0556435063481331	
38	35.3858569106593	0.355804443359375	3.6999999906584	0.0734962224960327	
39	35.4858569104068	0.353240966796875	3.79999999040592	-0.0823462828993797	
40	35.5858569101543	0.358154296875	3.89999999015345	0.127003505825996	
41	35.6858569099019	0.35821533203125	3.99999998990097	-0.0647478848695755	
42	35.7858569096494	0.361968994140625	4.0999999896485	0.0844825059175491	
43	35.8858569093969	0.359588623046875	4.19999998939602	-0.0872290804982185	
44	35.9858569091444	0.3594970703125	4.29999998914354	0.0386045873165131	
45	36.085856908892	0.357940673828125	4.39999998889107	-0.0354002565145493	
46	36.1858569086395	0.35821533203125	4.49999998863859	0.022888096049428	
47	36.285856908387	0.356536865234375	4.59999998838612	-0.0391640774905682	
48	36.3858569081345	0.361297607421875	4.69999998813364	0.107777498662472	
49	36.4858569078821	0.36181640625	4.79999998788116	-0.0516253709793091	
50	36.5858569076296	0.361907958984375	4.89999998762869	0.0114949103444815	
51	36.6858569073771	0.363037109375	4.99999998737621	0.0213622227311134	
52	36.7858569071246	0.358245849609375	5.09999998712374	-0.100707620382309	
53	36.8858569068722	0.362213134765625	5.19999998687126	0.132394924759865	
54	36.9858569066197	0.36004638671875	5.29999998661879	-0.101979181170464	
55	37.0858569063672	0.358154296875	5.39999998636631	0.00381468283012509	
56	37.1858569061147	0.361053466796875	5.49999998611383	0.0680030807852745	
57	37.2858569058623	0.363922119140625	5.59999998586136	0.0124612972140312	
58	37.3858569056098	0.3648681640625	5.69999998560888	-0.00645952951163054	
59	37.4858569053573	0.367340087890625	5.79999998535641	0.0438434183597565	
60	37.5858569051048	0.364471435546875	5.89999998510393	-0.0782772898674011	
61	37.6858569048524	0.362579345703125	5.99999998485146	0.00701901642605662	
62	37.7858569045999	0.368194580078125	6.09999998459898	0.115457728505135	
63	37.8858569043474	0.365081787109375	6.1999999843465	-0.128885418176651	
64	37.9858569040949	0.36260986328125	6.29999998409403	0.00971472542732954	
65	38.0858569038425	0.365875244140625	6.39999998384155	0.0783281549811363	
66	38.18585690359	0.366485595703125	6.49999998358908	-0.0351459421217442	
67	38.2858569033375	0.36627197265625	6.5999999833366	-0.000152587308548391	
68	38.385856903085	0.364898681640625	6.69999998308413	-0.0206501483917236	
69	38.4858569028326	0.3636474609375	6.79999998283165	-0.00762936566025019	
70	38.5858569025801	0.364227294921875	6.89999998257917	0.0206501483917236	
71	38.6858569023276	0.364532470703125	6.9999999823267	-0.00534055568277836	
72	38.7858569020751	0.36199951171875	7.09999998207422	-0.0480650030076504	
73	38.8858569018226	0.364471435546875	7.19999998182175	0.0758867561817169	
74	38.9858569015702	0.365570068359375	7.29999998156927	-0.0171406418085098	
75	39.0858569013177	0.366119384765625	7.3999999813168	0.00549314310774207	
76	39.1858569010652	0.364898681640625	7.49999998106432	-0.0251260437071323	
77	39.2858569008127	0.36468505859375	7.59999998081184	0.0121561223641038	
78	39.3858569005603	0.365570068359375	7.69999998055937	0.0146483816206455	
79	39.4858569003078	0.366058349609375	7.79999998030689	-0.00208535999991	
80	39.5858569000553	0.36517333984375	7.89999998005442	-0.0189716890454292	
81	39.6858568998028	0.3634033203125	7.99999997980194	-0.0204975623637438	
82	39.7858568995504	0.366485595703125	8.09999997954947	0.0742082968354225	
83	39.8858568992979	0.3651123046875	8.19999997929699	-0.0670366883277893	
84	39.9858568990454	0.363433837890625	8.29999997904451	-0.00447589438408613	
85	40.0858568987929	0.364715576171875	8.39999997879204	0.0385028645396233	
86	40.1858568985405	0.361236572265625	8.49999997853956	-0.0843299180269241	
87	40.285856898288	0.358306884765625	8.59999997828709	-0.00885006412863731	
88	40.3858568980355	0.35833740234375	8.69999997803461	0.0231424085795879	
89	40.485856897783	0.359619140625	8.79999997778214	0.0133768208324909	
90	40.5858568975306	0.360137939453125	8.89999997752966	-0.00534055568277836	
91	40.6858568972781	0.363433837890625	8.99999997727718	0.058644387871027	
92	40.7858568970256	0.364227294921875	9.09999997702471	-0.0221760217100382	
93	40.8858568967731	0.362701416015625	9.19999997677223	-0.0262450166046619	
94	40.9858568965207	0.3609619140625	9.29999997651976	-0.011444048024714	
95	41.0858568962682	0.36114501953125	9.39999997626728	0.0185647886246443	
96	41.1858568960157	0.3612060546875	9.49999997601481	-0.00681556668132544	
97	41.2858568957632	0.360809326171875	9.59999997576233	-0.00737505313009024	
98	41.3858568955108	0.3616943359375	9.69999997550985	0.0210570488125086	
99	41.4858568952583	0.360137939453125	9.79999997525738	-0.0401813238859177	
100	41.5858568950058	0.361419677734375	9.8999999750049	0.0446063578128815	
101	41.6858568947533	0.36322021484375	9.99999997475243	0.0128681967034936	
102	41.7858568945009	0.36004638671875	10.0999999745	-0.0749203711748123	
103	41.8858568942484	0.361236572265625	10.1999999742475	0.0648496076464653	
104	41.9858568939959	0.36163330078125	10.299999973995	-0.0171915031969547	
105	42.0858568937434	0.364044189453125	10.3999999737425	0.0435382463037968	
106	42.1858568934909	0.35992431640625	10.49999997349	-0.102335222065449	
107	42.2858568932385	0.3651123046875	10.5999999732376	0.151214018464088	
108	42.385856892986	0.36517333984375	10.6999999729851	-0.0731401816010475	
109	42.4858568927335	0.36090087890625	10.7999999727326	-0.061746995896101	
110	42.585856892481	0.36016845703125	10.8999999724801	0.036620955914259	
111	42.6858568922286	0.3587646484375	10.9999999722277	-0.0314329862594604	
112	42.7858568919761	0.35955810546875	11.0999999719752	0.0284829642623663	
113	42.8858568917236	0.36199951171875	11.1999999717227	0.0308226365596056	
114	42.9858568914711	0.364501953125	11.2999999714702	0.0200398005545139	
115	43.0858568912187	0.363800048828125	11.3999999712178	-0.0339252464473248	
116	43.1858568909662	0.366973876953125	11.4999999709653	0.0747169181704521	
117	43.2858568907137	0.36627197265625	11.5999999707128	-0.0522357225418091	
118	43.3858568904612	0.36151123046875	11.6999999704603	-0.0685117021203041	
119	43.4858568902088	0.364654541015625	11.7999999702079	0.110829249024391	
120	43.5858568899563	0.3614501953125	11.8999999699554	-0.111287012696266	
121	43.6858568897038	0.36273193359375	11.9999999697029	0.0713599994778633	
122	43.7858568894513	0.35943603515625	12.0999999694504	-0.0860592424869537	
123	43.8858568891989	0.363861083984375	12.199999969198	0.123850032687187	
124	43.9858568889464	0.36004638671875	12.2999999689455	-0.13254751265049	
125	44.0858568886939	0.36065673828125	12.399999968693	0.0704444721341133	
126	44.1858568884414	0.3599853515625	12.4999999684405	-0.0321450605988503	
127	44.285856888189	0.357696533203125	12.5999999681881	-0.0320941954851151	
128	44.3858568879365	0.35845947265625	12.6999999679356	0.0384520031511784	
129	44.485856887684	0.3592529296875	12.7999999676831	-0.0019836351275444	
130	44.5858568874315	0.361541748046875	12.8999999674306	0.0352476686239243	
131	44.6858568871791	0.360595703125	12.9999999671782	-0.0414020232856274	
132	44.7858568869266	0.360504150390625	13.0999999669257	0.0169880539178848	
133	44.8858568866741	0.357147216796875	13.1999999666732	-0.0636289045214653	
134	44.9858568864216	0.358001708984375	13.2999999664207	0.0545245334506035	
135	45.0858568861692	0.355499267578125	13.3999999661683	-0.0670366883277893	
136	45.1858568859167	0.3572998046875	13.4999999659158	0.0650530532002449	
137	45.2858568856642	0.356719970703125	13.5999999656633	-0.0399778746068478	
138	45.3858568854117	0.358367919921875	13.6999999654108	0.042978759855032	
139	45.4858568851593	0.361358642578125	13.7999999651583	0.0336709320545197	
140	45.5858568849068	0.3599853515625	13.8999999649059	-0.0545753948390484	
141	45.6858568846543	0.35650634765625	13.9999999646534	-0.0377907902002335	
142	45.7858568844018	0.35906982421875	14.0999999644009	0.0830074995756149	
143	45.8858568841493	0.357025146484375	14.1999999641484	-0.0789893642067909	
144	45.9858568838969	0.355682373046875	14.299999963896	0.00778195261955261	
145	46.0858568836444	0.35791015625	14.3999999636435	0.0496926009654999	
146	46.1858568833919	0.357635498046875	14.499999963391	-0.0355019792914391	
147	46.2858568831394	0.356536865234375	14.5999999631385	-0.00951127521693707	
148	46.385856882887	0.35546875	14.6999999628861	-0.00768022798001766	
149	46.4858568826345	0.3558349609375	14.7999999626336	0.0155130429193377	
150	46.585856882382	0.353973388671875	14.8999999623811	-0.0419615097343922	
151	46.6858568821295	0.350311279296875	14.9999999621286	-0.0441994555294514	
152	46.7858568818771	0.35186767578125	15.0999999618762	0.0650530532002449	
153	46.8858568816246	0.350555419921875	15.1999999616237	-0.0544228069484234	
154	46.9858568813721	0.35162353515625	15.2999999613712	0.0400796011090279	
155	47.0858568811196	0.3536376953125	15.3999999611187	0.0200906619429588	
156	47.1858568808672	0.355804443359375	15.4999999608663	0.019785488024354	
157	47.2858568806147	0.35791015625	15.5999999606138	0.0200398005545139	
158	47.3858568803622	0.355072021484375	15.6999999603613	-0.0693763643503189	
159	47.4858568801097	0.35052490234375	15.7999999601088	-0.0432330705225468	
160	47.5858568798573	0.35052490234375	15.8999999598564	0.0435891076922417	
161	47.6858568796048	0.352783203125	15.9999999596039	0.0262450166046619	
162	47.7858568793523	0.350311279296875	16.0999999593514	-0.0716651752591133	
163	47.8858568790998	0.35125732421875	16.1999999590989	0.0537107326090336	
164	47.9858568788474	0.355072021484375	16.2999999588465	0.0506589859724045	
165	48.0858568785949	0.35577392578125	16.399999958594	-0.0284829642623663	
166	48.1858568783424	0.35296630859375	16.4999999583415	-0.0469460301101208	
167	48.2858568780899	0.351287841796875	16.599999958089	0.00432330695912242	
168	48.3858568778375	0.35040283203125	16.6999999578366	-0.00600176770240068	
169	48.485856877585	0.3505859375	16.7999999575841	0.00808712746948004	
170	48.5858568773325	0.350921630859375	16.8999999573316	0.00106811115983874	
171	48.68585687708	0.354339599609375	16.9999999570791	0.0593564622104168	
172	48.7858568768276	0.358062744140625	17.0999999568267	0.0295002125203609	
173	48.8858568765751	0.356109619140625	17.1999999565742	-0.0678504928946495	
174	48.9858568763226	0.35723876953125	17.2999999563217	0.0558978170156479	
175	49.0858568760701	0.355133056640625	17.3999999560692	-0.0582883507013321	
176	49.1858568758176	0.352752685546875	17.4999999558167	-0.0153095936402678	
177	49.2858568755652	0.354217529296875	17.5999999555643	0.0476072393357754	
178	49.3858568753127	0.35528564453125	17.6999999553118	-0.0054422807879746	
179	49.4858568750602	0.35687255859375	17.7999999550593	0.0215148106217384	
180	49.5858568748077	0.35699462890625	17.8999999548068	-0.0127156088128686	
181	49.6858568745553	0.35723876953125	17.9999999545544	0.00834143999963999	
182	49.7858568743028	0.360260009765625	18.0999999543019	0.0529477968811989	
183	49.8858568740503	0.359405517578125	18.1999999540494	-0.0500994995236397	
184	49.9858568737978	0.3570556640625	18.2999999537969	-0.023040683940053	
185	50.0858568735454	0.35662841796875	18.3999999535445	0.0167337413877249	
186	50.1858568732929	0.35601806640625	18.499999953292	-0.0140380328521132	
187	50.2858568730404	0.3558349609375	18.5999999530395	0.00233967206440866	
188	50.3858568727879	0.357269287109375	18.699999952787	0.0263976044952869	
189	50.4858568725355	0.35693359375	18.7999999525346	-0.0234984457492828	
190	50.585856872283	0.356658935546875	18.8999999522821	0.00366209540516138	
191	50.6858568720305	0.359100341796875	18.9999999520296	0.0468443036079407	
192	50.785856871778	0.3548583984375	19.0999999517771	-0.107167154550552	
193	50.8858568715256	0.35504150390625	19.1999999515247	0.0609840601682663	
194	50.9858568712731	0.352203369140625	19.2999999512722	-0.0683082491159439	
195	51.0858568710206	0.355926513671875	19.3999999510197	0.101979181170464	
196	51.1858568707681	0.351959228515625	19.4999999507672	-0.125630214810371	
197	51.2858568705157	0.359527587890625	19.5999999505148	0.197447970509529	
198	51.3858568702632	0.357025146484375	19.6999999502623	-0.147399336099625	
199	51.4858568700107	0.35479736328125	19.7999999500098	0.0135802701115608	
200	51.5858568697582	0.353485107421875	19.8999999497573	-0.00640866719186306	
201	51.6858568695058	0.35247802734375	19.9999999495049	-0.0105793867260218	
202	51.7858568692533	0.355010986328125	20.0999999492524	0.0538124591112137	
203	51.8858568690008	0.354400634765625	20.1999999489999	-0.0440977327525616	
204	51.9858568687483	0.353759765625	20.2999999487474	0.00381468283012509	
205	52.0858568684959	0.3544921875	20.399999948495	0.0188699644058943	
206	52.1858568682434	0.35504150390625	20.4999999482425	-0.000610349234193563	
207	52.2858568679909	0.355255126953125	20.59999994799	-5.0862436182797E-05	
208	52.3858568677384	0.357330322265625	20.6999999477375	0.0373838916420937	
209	52.4858568674859	0.355560302734375	20.799999947485	-0.0559486784040928	
210	52.5858568672335	0.3519287109375	20.8999999472326	-0.0390114895999432	
211	52.685856866981	0.35235595703125	20.9999999469801	0.0443011820316315	
212	52.7858568667285	0.35693359375	21.0999999467276	0.0668332427740097	
213	52.885856866476	0.35400390625	21.1999999464751	-0.105692140758038	
214	52.9858568662236	0.35150146484375	21.2999999462227	0.00356037053279579	
215	53.0858568659711	0.355499267578125	21.3999999459702	0.0927222222089767	
216	53.1858568657186	0.355133056640625	21.4999999457177	-0.0616961345076561	
217	53.2858568654661	0.355438232421875	21.5999999454652	0.023193271830678	
218	53.3858568652137	0.35711669921875	21.6999999452128	0.025990704074502	
219	53.4858568649612	0.355926513671875	21.7999999449603	-0.0403847731649876	
220	53.5858568647087	0.35650634765625	21.8999999447078	0.0301105622202158	
221	53.6858568644562	0.358245849609375	21.9999999444553	0.0211587734520435	
222	53.7858568642038	0.355438232421875	22.0999999442029	-0.0698341280221939	
223	53.8858568639513	0.355438232421875	22.1999999439504	0.0385537259280682	
224	53.9858568636988	0.356689453125	22.2999999436979	0.0135802701115608	
225	54.0858568634463	0.359100341796875	22.3999999434454	0.0296019371598959	
226	54.1858568631939	0.36077880859375	22.499999943193	0.00681556668132544	
227	54.2858568629414	0.358154296875	22.5999999429405	-0.0596616379916668	
228	54.3858568626889	0.35675048828125	22.699999942688	0.0104776620864868	
229	54.4858568624364	0.3560791015625	22.7999999424355	-0.00467934412881732	
230	54.585856862184	0.357330322265625	22.8999999421831	0.0260924305766821	
231	54.6858568619315	0.355682373046875	22.9999999419306	-0.0470477528870106	
232	54.785856861679	0.35736083984375	23.0999999416781	0.0541684962809086	
233	54.8858568614265	0.356719970703125	23.1999999414256	-0.0368244051933289	
234	54.9858568611741	0.35601806640625	23.2999999411732	0.000203449744731188	
235	55.0858568609216	0.35546875	23.3999999409207	-0.00401813257485628	
236	55.1858568606691	0.35736083984375	23.4999999406682	0.0387571752071381	
237	55.2858568604166	0.35589599609375	23.5999999404157	-0.0507607124745846	
238	55.3858568601642	0.3563232421875	23.6999999401633	0.0312295351177454	
239	55.4858568599117	0.357818603515625	23.7999999399108	0.0175475403666496	
240	55.5858568596592	0.356170654296875	23.8999999396583	-0.046233955770731	
241	55.6858568594067	0.353302001953125	23.9999999394058	-0.0283812396228313	
242	55.7858568591543	0.356536865234375	24.0999999391533	0.0872799381613731	
243	55.8858568589018	0.353607177734375	24.1999999389009	-0.101012796163559	
244	55.9858568586493	0.351715087890625	24.2999999386484	0.0102742118760943	
245	56.0858568583968	0.3529052734375	24.3999999383959	0.0341286957263947	
246	56.1858568581443	0.349639892578125	24.4999999381434	-0.0800574719905853	
247	56.2858568578919	0.349639892578125	24.599999937891	0.0420632362365723	
248	56.3858568576394	0.350677490234375	24.6999999376385	0.00813798978924751	
249	56.4858568573869	0.353912353515625	24.799999937386	0.0472003407776356	
250	56.5858568571344	0.35498046875	24.8999999371335	-0.014699243940413	
251	56.685856856882	0.35369873046875	24.9999999368811	-0.0251769050955772	
252	56.7858568566295	0.355987548828125	25.0999999366286	0.0604754351079464	
253	56.885856856377	0.3541259765625	25.1999999363761	-0.0651039183139801	
254	56.9858568561245	0.35498046875	25.2999999361236	0.0450132563710213	
255	57.0858568558721	0.352752685546875	25.3999999358712	-0.0570167899131775	
256	57.1858568556196	0.354888916015625	25.4999999356187	0.0680030807852745	
257	57.2858568553671	0.356475830078125	25.5999999353662	-0.00325519591569901	
258	57.3858568551146	0.359222412109375	25.6999999351137	0.038960624486208	
259	57.4858568548622	0.357879638671875	25.7999999348613	-0.0513710603117943	
260	57.5858568546097	0.35174560546875	25.8999999346088	-0.0876359790563583	
261	57.6858568543572	0.3546142578125	25.9999999343563	0.119679309427738	
262	57.7858568541047	0.35894775390625	26.0999999341038	0.0255329422652721	
263	57.8858568538523	0.3560791015625	26.1999999338514	-0.0935868844389915	
264	57.9858568535998	0.3590087890625	26.2999999335989	0.101623147726059	
265	58.0858568533473	0.35943603515625	26.3999999333464	-0.0359088815748692	
